!Murata Part Number:GRM155R71C103KA01
!These Parameters are Measured in Series Mode Connection
!       o--ll--o
!Port1            Port2
!       o------o
!Operation Temp=25[C], DC Bias Voltage=0[V]
!Freq. Start=30[kHz] Stop=6[GHz], 201[Steps]
# Hz S DB R 50
!Freq.[Hz] MagS11[dB] PhaseS11[DEG] MagS21[dB] PhaseS21[DEG] MagS12[dB] PhaseS12[DEG] MagS22[dB] PhaseS22[DEG]
30000 -1.534E-01 -1.009E+01 -1.513E+01 7.924E+01 -1.513E+01 7.924E+01 -1.534E-01 -1.009E+01
31888 -1.717E-01 -1.071E+01 -1.461E+01 7.862E+01 -1.461E+01 7.862E+01 -1.717E-01 -1.071E+01
33895 -1.923E-01 -1.137E+01 -1.411E+01 7.797E+01 -1.411E+01 7.797E+01 -1.923E-01 -1.137E+01
36028 -2.154E-01 -1.206E+01 -1.360E+01 7.728E+01 -1.360E+01 7.728E+01 -2.154E-01 -1.206E+01
38295 -2.413E-01 -1.279E+01 -1.309E+01 7.654E+01 -1.309E+01 7.654E+01 -2.413E-01 -1.279E+01
40705 -2.702E-01 -1.357E+01 -1.259E+01 7.577E+01 -1.259E+01 7.577E+01 -2.702E-01 -1.357E+01
43267 -3.026E-01 -1.439E+01 -1.210E+01 7.495E+01 -1.210E+01 7.495E+01 -3.026E-01 -1.439E+01
45989 -3.388E-01 -1.525E+01 -1.160E+01 7.409E+01 -1.160E+01 7.409E+01 -3.388E-01 -1.525E+01
48884 -3.792E-01 -1.615E+01 -1.111E+01 7.318E+01 -1.111E+01 7.318E+01 -3.792E-01 -1.615E+01
51960 -4.243E-01 -1.711E+01 -1.063E+01 7.222E+01 -1.063E+01 7.222E+01 -4.243E-01 -1.711E+01
55230 -4.746E-01 -1.811E+01 -1.015E+01 7.122E+01 -1.015E+01 7.122E+01 -4.746E-01 -1.811E+01
58705 -5.307E-01 -1.917E+01 -9.673E+00 7.016E+01 -9.673E+00 7.016E+01 -5.307E-01 -1.917E+01
62400 -5.930E-01 -2.027E+01 -9.205E+00 6.906E+01 -9.205E+00 6.906E+01 -5.930E-01 -2.027E+01
66327 -6.623E-01 -2.143E+01 -8.744E+00 6.790E+01 -8.744E+00 6.790E+01 -6.623E-01 -2.143E+01
70501 -7.391E-01 -2.264E+01 -8.291E+00 6.669E+01 -8.291E+00 6.669E+01 -7.391E-01 -2.264E+01
74937 -8.241E-01 -2.390E+01 -7.846E+00 6.543E+01 -7.846E+00 6.543E+01 -8.241E-01 -2.390E+01
79653 -9.181E-01 -2.522E+01 -7.409E+00 6.411E+01 -7.409E+00 6.411E+01 -9.181E-01 -2.522E+01
84666 -1.022E+00 -2.659E+01 -6.983E+00 6.274E+01 -6.983E+00 6.274E+01 -1.022E+00 -2.659E+01
89994 -1.136E+00 -2.800E+01 -6.567E+00 6.133E+01 -6.567E+00 6.133E+01 -1.136E+00 -2.800E+01
95658 -1.261E+00 -2.946E+01 -6.162E+00 5.986E+01 -6.162E+00 5.986E+01 -1.261E+00 -2.946E+01
101677 -1.398E+00 -3.097E+01 -5.769E+00 5.835E+01 -5.769E+00 5.835E+01 -1.398E+00 -3.097E+01
108076 -1.548E+00 -3.253E+01 -5.389E+00 5.680E+01 -5.389E+00 5.680E+01 -1.548E+00 -3.253E+01
114877 -1.711E+00 -3.412E+01 -5.021E+00 5.520E+01 -5.021E+00 5.520E+01 -1.711E+00 -3.412E+01
122107 -1.887E+00 -3.575E+01 -4.668E+00 5.358E+01 -4.668E+00 5.358E+01 -1.887E+00 -3.575E+01
129791 -2.079E+00 -3.740E+01 -4.329E+00 5.192E+01 -4.329E+00 5.192E+01 -2.079E+00 -3.740E+01
137959 -2.285E+00 -3.909E+01 -4.005E+00 5.023E+01 -4.005E+00 5.023E+01 -2.285E+00 -3.909E+01
146641 -2.507E+00 -4.079E+01 -3.697E+00 4.853E+01 -3.697E+00 4.853E+01 -2.507E+00 -4.079E+01
155869 -2.744E+00 -4.251E+01 -3.404E+00 4.681E+01 -3.404E+00 4.681E+01 -2.744E+00 -4.251E+01
165678 -2.997E+00 -4.423E+01 -3.127E+00 4.508E+01 -3.127E+00 4.508E+01 -2.997E+00 -4.423E+01
176105 -3.267E+00 -4.596E+01 -2.867E+00 4.335E+01 -2.867E+00 4.335E+01 -3.267E+00 -4.596E+01
187187 -3.552E+00 -4.768E+01 -2.622E+00 4.163E+01 -2.622E+00 4.163E+01 -3.552E+00 -4.768E+01
198967 -3.853E+00 -4.939E+01 -2.393E+00 3.992E+01 -2.393E+00 3.992E+01 -3.853E+00 -4.939E+01
211488 -4.169E+00 -5.108E+01 -2.179E+00 3.822E+01 -2.179E+00 3.822E+01 -4.169E+00 -5.108E+01
224797 -4.501E+00 -5.275E+01 -1.981E+00 3.655E+01 -1.981E+00 3.655E+01 -4.501E+00 -5.275E+01
238944 -4.847E+00 -5.440E+01 -1.797E+00 3.491E+01 -1.797E+00 3.491E+01 -4.847E+00 -5.440E+01
253981 -5.208E+00 -5.600E+01 -1.628E+00 3.330E+01 -1.628E+00 3.330E+01 -5.208E+00 -5.600E+01
269964 -5.582E+00 -5.757E+01 -1.472E+00 3.172E+01 -1.472E+00 3.172E+01 -5.582E+00 -5.757E+01
286954 -5.970E+00 -5.910E+01 -1.329E+00 3.019E+01 -1.329E+00 3.019E+01 -5.970E+00 -5.910E+01
305012 -6.369E+00 -6.059E+01 -1.198E+00 2.871E+01 -1.198E+00 2.871E+01 -6.369E+00 -6.059E+01
324207 -6.780E+00 -6.202E+01 -1.079E+00 2.727E+01 -1.079E+00 2.727E+01 -6.780E+00 -6.202E+01
344610 -7.201E+00 -6.341E+01 -9.703E-01 2.588E+01 -9.703E-01 2.588E+01 -7.201E+00 -6.341E+01
366296 -7.633E+00 -6.475E+01 -8.718E-01 2.454E+01 -8.718E-01 2.454E+01 -7.633E+00 -6.475E+01
389348 -8.074E+00 -6.603E+01 -7.826E-01 2.325E+01 -7.826E-01 2.325E+01 -8.074E+00 -6.603E+01
413850 -8.523E+00 -6.726E+01 -7.020E-01 2.201E+01 -7.020E-01 2.201E+01 -8.523E+00 -6.726E+01
439894 -8.981E+00 -6.844E+01 -6.292E-01 2.083E+01 -6.292E-01 2.083E+01 -8.981E+00 -6.844E+01
467577 -9.445E+00 -6.957E+01 -5.637E-01 1.970E+01 -5.637E-01 1.970E+01 -9.445E+00 -6.957E+01
497002 -9.917E+00 -7.064E+01 -5.047E-01 1.862E+01 -5.047E-01 1.862E+01 -9.917E+00 -7.064E+01
528279 -1.039E+01 -7.167E+01 -4.517E-01 1.759E+01 -4.517E-01 1.759E+01 -1.039E+01 -7.167E+01
561524 -1.088E+01 -7.264E+01 -4.042E-01 1.661E+01 -4.042E-01 1.661E+01 -1.088E+01 -7.264E+01
596862 -1.136E+01 -7.357E+01 -3.616E-01 1.568E+01 -3.616E-01 1.568E+01 -1.136E+01 -7.357E+01
634423 -1.186E+01 -7.444E+01 -3.234E-01 1.480E+01 -3.234E-01 1.480E+01 -1.186E+01 -7.444E+01
674348 -1.235E+01 -7.527E+01 -2.893E-01 1.396E+01 -2.893E-01 1.396E+01 -1.235E+01 -7.527E+01
716785 -1.285E+01 -7.606E+01 -2.588E-01 1.316E+01 -2.588E-01 1.316E+01 -1.285E+01 -7.606E+01
761893 -1.335E+01 -7.681E+01 -2.315E-01 1.241E+01 -2.315E-01 1.241E+01 -1.335E+01 -7.681E+01
809840 -1.386E+01 -7.751E+01 -2.071E-01 1.170E+01 -2.071E-01 1.170E+01 -1.386E+01 -7.751E+01
860804 -1.437E+01 -7.818E+01 -1.854E-01 1.102E+01 -1.854E-01 1.102E+01 -1.437E+01 -7.818E+01
914976 -1.488E+01 -7.880E+01 -1.660E-01 1.039E+01 -1.660E-01 1.039E+01 -1.488E+01 -7.880E+01
972556 -1.539E+01 -7.940E+01 -1.487E-01 9.785E+00 -1.487E-01 9.785E+00 -1.539E+01 -7.940E+01
1033761 -1.591E+01 -7.995E+01 -1.333E-01 9.217E+00 -1.333E-01 9.217E+00 -1.591E+01 -7.995E+01
1098816 -1.642E+01 -8.048E+01 -1.195E-01 8.680E+00 -1.195E-01 8.680E+00 -1.642E+01 -8.048E+01
1167966 -1.694E+01 -8.098E+01 -1.072E-01 8.174E+00 -1.072E-01 8.174E+00 -1.694E+01 -8.098E+01
1241468 -1.746E+01 -8.144E+01 -9.631E-02 7.697E+00 -9.631E-02 7.697E+00 -1.746E+01 -8.144E+01
1319595 -1.798E+01 -8.188E+01 -8.656E-02 7.246E+00 -8.656E-02 7.246E+00 -1.798E+01 -8.188E+01
1402638 -1.850E+01 -8.229E+01 -7.787E-02 6.822E+00 -7.787E-02 6.822E+00 -1.850E+01 -8.229E+01
1490908 -1.903E+01 -8.267E+01 -7.012E-02 6.422E+00 -7.012E-02 6.422E+00 -1.903E+01 -8.267E+01
1584733 -1.955E+01 -8.303E+01 -6.322E-02 6.045E+00 -6.322E-02 6.045E+00 -1.955E+01 -8.303E+01
1684462 -2.007E+01 -8.337E+01 -5.706E-02 5.689E+00 -5.706E-02 5.689E+00 -2.007E+01 -8.337E+01
1790467 -2.060E+01 -8.369E+01 -5.157E-02 5.354E+00 -5.157E-02 5.354E+00 -2.060E+01 -8.369E+01
1903143 -2.113E+01 -8.399E+01 -4.667E-02 5.039E+00 -4.667E-02 5.039E+00 -2.113E+01 -8.399E+01
2022910 -2.165E+01 -8.426E+01 -4.230E-02 4.742E+00 -4.230E-02 4.742E+00 -2.165E+01 -8.426E+01
2150214 -2.218E+01 -8.452E+01 -3.840E-02 4.462E+00 -3.840E-02 4.462E+00 -2.218E+01 -8.452E+01
2285530 -2.271E+01 -8.476E+01 -3.492E-02 4.199E+00 -3.492E-02 4.199E+00 -2.271E+01 -8.476E+01
2429361 -2.323E+01 -8.499E+01 -3.181E-02 3.951E+00 -3.181E-02 3.951E+00 -2.323E+01 -8.499E+01
2582244 -2.376E+01 -8.519E+01 -2.904E-02 3.717E+00 -2.904E-02 3.717E+00 -2.376E+01 -8.519E+01
2744747 -2.429E+01 -8.538E+01 -2.656E-02 3.497E+00 -2.656E-02 3.497E+00 -2.429E+01 -8.538E+01
2917477 -2.482E+01 -8.556E+01 -2.434E-02 3.290E+00 -2.434E-02 3.290E+00 -2.482E+01 -8.556E+01
3101078 -2.535E+01 -8.573E+01 -2.236E-02 3.095E+00 -2.236E-02 3.095E+00 -2.535E+01 -8.573E+01
3296232 -2.588E+01 -8.587E+01 -2.058E-02 2.912E+00 -2.058E-02 2.912E+00 -2.588E+01 -8.587E+01
3503668 -2.641E+01 -8.601E+01 -1.900E-02 2.739E+00 -1.900E-02 2.739E+00 -2.641E+01 -8.601E+01
3724158 -2.694E+01 -8.614E+01 -1.758E-02 2.577E+00 -1.758E-02 2.577E+00 -2.694E+01 -8.614E+01
3958524 -2.747E+01 -8.625E+01 -1.631E-02 2.423E+00 -1.631E-02 2.423E+00 -2.747E+01 -8.625E+01
4207638 -2.801E+01 -8.635E+01 -1.517E-02 2.279E+00 -1.517E-02 2.279E+00 -2.801E+01 -8.635E+01
4472430 -2.854E+01 -8.644E+01 -1.414E-02 2.144E+00 -1.414E-02 2.144E+00 -2.854E+01 -8.644E+01
4753885 -2.907E+01 -8.651E+01 -1.323E-02 2.016E+00 -1.323E-02 2.016E+00 -2.907E+01 -8.651E+01
5053053 -2.960E+01 -8.658E+01 -1.241E-02 1.896E+00 -1.241E-02 1.896E+00 -2.960E+01 -8.658E+01
5371048 -3.014E+01 -8.664E+01 -1.167E-02 1.783E+00 -1.167E-02 1.783E+00 -3.014E+01 -8.664E+01
5709054 -3.067E+01 -8.668E+01 -1.101E-02 1.676E+00 -1.101E-02 1.676E+00 -3.067E+01 -8.668E+01
6068332 -3.121E+01 -8.672E+01 -1.041E-02 1.576E+00 -1.041E-02 1.576E+00 -3.121E+01 -8.672E+01
6450219 -3.175E+01 -8.674E+01 -9.880E-03 1.481E+00 -9.880E-03 1.481E+00 -3.175E+01 -8.674E+01
6856139 -3.228E+01 -8.675E+01 -9.401E-03 1.392E+00 -9.401E-03 1.392E+00 -3.228E+01 -8.675E+01
7287604 -3.282E+01 -8.676E+01 -8.970E-03 1.308E+00 -8.970E-03 1.308E+00 -3.282E+01 -8.676E+01
7746221 -3.336E+01 -8.675E+01 -8.583E-03 1.230E+00 -8.583E-03 1.230E+00 -3.336E+01 -8.675E+01
8233700 -3.390E+01 -8.673E+01 -8.236E-03 1.155E+00 -8.236E-03 1.155E+00 -3.390E+01 -8.673E+01
8751857 -3.445E+01 -8.670E+01 -7.924E-03 1.085E+00 -7.924E-03 1.085E+00 -3.445E+01 -8.670E+01
9302622 -3.499E+01 -8.666E+01 -7.644E-03 1.019E+00 -7.644E-03 1.019E+00 -3.499E+01 -8.666E+01
9888047 -3.554E+01 -8.660E+01 -7.393E-03 9.568E-01 -7.393E-03 9.568E-01 -3.554E+01 -8.660E+01
10510313 -3.609E+01 -8.654E+01 -7.168E-03 8.981E-01 -7.168E-03 8.981E-01 -3.609E+01 -8.654E+01
11171740 -3.664E+01 -8.646E+01 -6.967E-03 8.427E-01 -6.967E-03 8.427E-01 -3.664E+01 -8.646E+01
11874790 -3.719E+01 -8.636E+01 -6.788E-03 7.905E-01 -6.788E-03 7.905E-01 -3.719E+01 -8.636E+01
12622085 -3.775E+01 -8.625E+01 -6.628E-03 7.412E-01 -6.628E-03 7.412E-01 -3.775E+01 -8.625E+01
13416408 -3.831E+01 -8.613E+01 -6.486E-03 6.947E-01 -6.486E-03 6.947E-01 -3.831E+01 -8.613E+01
14260718 -3.888E+01 -8.599E+01 -6.360E-03 6.508E-01 -6.360E-03 6.508E-01 -3.888E+01 -8.599E+01
15158162 -3.945E+01 -8.582E+01 -6.250E-03 6.093E-01 -6.250E-03 6.093E-01 -3.945E+01 -8.582E+01
16112083 -4.002E+01 -8.564E+01 -6.153E-03 5.701E-01 -6.153E-03 5.701E-01 -4.002E+01 -8.564E+01
17126036 -4.061E+01 -8.544E+01 -6.069E-03 5.330E-01 -6.069E-03 5.330E-01 -4.061E+01 -8.544E+01
18203798 -4.120E+01 -8.521E+01 -5.997E-03 4.978E-01 -5.997E-03 4.978E-01 -4.120E+01 -8.521E+01
19349384 -4.179E+01 -8.495E+01 -5.936E-03 4.646E-01 -5.936E-03 4.646E-01 -4.179E+01 -8.495E+01
20567064 -4.240E+01 -8.466E+01 -5.886E-03 4.330E-01 -5.886E-03 4.330E-01 -4.240E+01 -8.466E+01
21861374 -4.302E+01 -8.433E+01 -5.845E-03 4.031E-01 -5.845E-03 4.031E-01 -4.302E+01 -8.433E+01
23237136 -4.365E+01 -8.397E+01 -5.814E-03 3.747E-01 -5.814E-03 3.747E-01 -4.365E+01 -8.397E+01
24699477 -4.429E+01 -8.356E+01 -5.791E-03 3.476E-01 -5.791E-03 3.476E-01 -4.429E+01 -8.356E+01
26253844 -4.495E+01 -8.309E+01 -5.777E-03 3.219E-01 -5.777E-03 3.219E-01 -4.495E+01 -8.309E+01
27906030 -4.563E+01 -8.256E+01 -5.771E-03 2.974E-01 -5.771E-03 2.974E-01 -4.563E+01 -8.256E+01
29662189 -4.633E+01 -8.195E+01 -5.773E-03 2.739E-01 -5.773E-03 2.739E-01 -4.633E+01 -8.195E+01
31528866 -4.706E+01 -8.125E+01 -5.783E-03 2.515E-01 -5.783E-03 2.515E-01 -4.706E+01 -8.125E+01
33513015 -4.781E+01 -8.044E+01 -5.800E-03 2.301E-01 -5.800E-03 2.301E-01 -4.781E+01 -8.044E+01
35622029 -4.860E+01 -7.950E+01 -5.825E-03 2.094E-01 -5.825E-03 2.094E-01 -4.860E+01 -7.950E+01
37863766 -4.943E+01 -7.839E+01 -5.857E-03 1.896E-01 -5.857E-03 1.896E-01 -4.943E+01 -7.839E+01
40246577 -5.031E+01 -7.706E+01 -5.896E-03 1.705E-01 -5.896E-03 1.705E-01 -5.031E+01 -7.706E+01
42779342 -5.125E+01 -7.546E+01 -5.943E-03 1.520E-01 -5.943E-03 1.520E-01 -5.125E+01 -7.546E+01
45471497 -5.226E+01 -7.349E+01 -5.998E-03 1.341E-01 -5.998E-03 1.341E-01 -5.226E+01 -7.349E+01
48333072 -5.335E+01 -7.102E+01 -6.060E-03 1.166E-01 -6.060E-03 1.166E-01 -5.335E+01 -7.102E+01
51374730 -5.454E+01 -6.786E+01 -6.131E-03 9.963E-02 -6.131E-03 9.963E-02 -5.454E+01 -6.786E+01
54607803 -5.584E+01 -6.370E+01 -6.209E-03 8.301E-02 -6.209E-03 8.301E-02 -5.584E+01 -6.370E+01
58044337 -5.726E+01 -5.806E+01 -6.295E-03 6.670E-02 -6.295E-03 6.670E-02 -5.726E+01 -5.806E+01
61697136 -5.879E+01 -5.019E+01 -6.391E-03 5.063E-02 -6.391E-03 5.063E-02 -5.879E+01 -5.019E+01
65579810 -6.033E+01 -3.904E+01 -6.495E-03 3.476E-02 -6.495E-03 3.476E-02 -6.033E+01 -3.904E+01
69706825 -6.162E+01 -2.356E+01 -6.608E-03 1.901E-02 -6.608E-03 1.901E-02 -6.162E+01 -2.356E+01
74093558 -6.219E+01 -4.301E+00 -6.731E-03 3.341E-03 -6.731E-03 3.341E-03 -6.219E+01 -4.301E+00
78756354 -6.174E+01 1.521E+01 -6.865E-03 -1.232E-02 -6.865E-03 -1.232E-02 -6.174E+01 1.521E+01
83712585 -6.051E+01 3.121E+01 -7.009E-03 -2.803E-02 -7.009E-03 -2.803E-02 -6.051E+01 3.121E+01
88980717 -5.898E+01 4.283E+01 -7.164E-03 -4.383E-02 -7.164E-03 -4.383E-02 -5.898E+01 4.283E+01
94580379 -5.745E+01 5.101E+01 -7.331E-03 -5.981E-02 -7.331E-03 -5.981E-02 -5.745E+01 5.101E+01
100532435 -5.601E+01 5.686E+01 -7.510E-03 -7.600E-02 -7.510E-03 -7.600E-02 -5.601E+01 5.686E+01
106859061 -5.470E+01 6.117E+01 -7.703E-03 -9.248E-02 -7.703E-03 -9.248E-02 -5.470E+01 6.117E+01
113583828 -5.350E+01 6.443E+01 -7.909E-03 -1.093E-01 -7.909E-03 -1.093E-01 -5.350E+01 6.443E+01
120731793 -5.241E+01 6.697E+01 -8.130E-03 -1.265E-01 -8.130E-03 -1.265E-01 -5.241E+01 6.697E+01
128329589 -5.139E+01 6.899E+01 -8.367E-03 -1.442E-01 -8.367E-03 -1.442E-01 -5.139E+01 6.899E+01
136405522 -5.045E+01 7.063E+01 -8.620E-03 -1.625E-01 -8.620E-03 -1.625E-01 -5.045E+01 7.063E+01
144989683 -4.957E+01 7.198E+01 -8.891E-03 -1.813E-01 -8.891E-03 -1.813E-01 -4.957E+01 7.198E+01
154114056 -4.873E+01 7.312E+01 -9.181E-03 -2.008E-01 -9.181E-03 -2.008E-01 -4.873E+01 7.312E+01
163812637 -4.794E+01 7.408E+01 -9.491E-03 -2.211E-01 -9.491E-03 -2.211E-01 -4.794E+01 7.408E+01
174121561 -4.719E+01 7.490E+01 -9.821E-03 -2.421E-01 -9.821E-03 -2.421E-01 -4.719E+01 7.490E+01
185079238 -4.646E+01 7.561E+01 -1.017E-02 -2.641E-01 -1.017E-02 -2.641E-01 -4.646E+01 7.561E+01
196726494 -4.576E+01 7.623E+01 -1.055E-02 -2.871E-01 -1.055E-02 -2.871E-01 -4.576E+01 7.623E+01
209106726 -4.508E+01 7.677E+01 -1.095E-02 -3.111E-01 -1.095E-02 -3.111E-01 -4.508E+01 7.677E+01
222266060 -4.442E+01 7.724E+01 -1.138E-02 -3.363E-01 -1.138E-02 -3.363E-01 -4.442E+01 7.724E+01
236253527 -4.378E+01 7.766E+01 -1.184E-02 -3.627E-01 -1.184E-02 -3.627E-01 -4.378E+01 7.766E+01
251121243 -4.315E+01 7.804E+01 -1.233E-02 -3.905E-01 -1.233E-02 -3.905E-01 -4.315E+01 7.804E+01
266924601 -4.254E+01 7.837E+01 -1.286E-02 -4.197E-01 -1.286E-02 -4.197E-01 -4.254E+01 7.837E+01
283722483 -4.193E+01 7.866E+01 -1.342E-02 -4.505E-01 -1.342E-02 -4.505E-01 -4.193E+01 7.866E+01
301577476 -4.133E+01 7.892E+01 -1.401E-02 -4.830E-01 -1.401E-02 -4.830E-01 -4.133E+01 7.892E+01
320556104 -4.075E+01 7.916E+01 -1.465E-02 -5.172E-01 -1.465E-02 -5.172E-01 -4.075E+01 7.916E+01
340729081 -4.017E+01 7.937E+01 -1.533E-02 -5.534E-01 -1.533E-02 -5.534E-01 -4.017E+01 7.937E+01
362171566 -3.959E+01 7.955E+01 -1.606E-02 -5.916E-01 -1.606E-02 -5.916E-01 -3.959E+01 7.955E+01
384963453 -3.902E+01 7.972E+01 -1.684E-02 -6.320E-01 -1.684E-02 -6.320E-01 -3.902E+01 7.972E+01
409189661 -3.846E+01 7.986E+01 -1.767E-02 -6.748E-01 -1.767E-02 -6.748E-01 -3.846E+01 7.986E+01
434940452 -3.790E+01 7.999E+01 -1.856E-02 -7.201E-01 -1.856E-02 -7.201E-01 -3.790E+01 7.999E+01
462311771 -3.734E+01 8.010E+01 -1.951E-02 -7.680E-01 -1.951E-02 -7.680E-01 -3.734E+01 8.010E+01
491405600 -3.679E+01 8.020E+01 -2.053E-02 -8.188E-01 -2.053E-02 -8.188E-01 -3.679E+01 8.020E+01
522330338 -3.624E+01 8.028E+01 -2.162E-02 -8.726E-01 -2.162E-02 -8.726E-01 -3.624E+01 8.028E+01
555201207 -3.570E+01 8.035E+01 -2.278E-02 -9.296E-01 -2.278E-02 -9.296E-01 -3.570E+01 8.035E+01
590140678 -3.515E+01 8.041E+01 -2.403E-02 -9.901E-01 -2.403E-02 -9.901E-01 -3.515E+01 8.041E+01
627278932 -3.461E+01 8.045E+01 -2.537E-02 -1.054E+00 -2.537E-02 -1.054E+00 -3.461E+01 8.045E+01
666754340 -3.407E+01 8.049E+01 -2.680E-02 -1.122E+00 -2.680E-02 -1.122E+00 -3.407E+01 8.049E+01
708713982 -3.353E+01 8.051E+01 -2.833E-02 -1.194E+00 -2.833E-02 -1.194E+00 -3.353E+01 8.051E+01
753314195 -3.299E+01 8.052E+01 -2.998E-02 -1.271E+00 -2.998E-02 -1.271E+00 -3.299E+01 8.052E+01
800721152 -3.245E+01 8.052E+01 -3.175E-02 -1.352E+00 -3.175E-02 -1.352E+00 -3.245E+01 8.052E+01
851111485 -3.192E+01 8.051E+01 -3.364E-02 -1.439E+00 -3.364E-02 -1.439E+00 -3.192E+01 8.051E+01
904672942 -3.138E+01 8.049E+01 -3.568E-02 -1.530E+00 -3.568E-02 -1.530E+00 -3.138E+01 8.049E+01
961605085 -3.085E+01 8.046E+01 -3.787E-02 -1.627E+00 -3.787E-02 -1.627E+00 -3.085E+01 8.046E+01
1022120035 -3.032E+01 8.042E+01 -4.022E-02 -1.731E+00 -4.022E-02 -1.731E+00 -3.032E+01 8.042E+01
1086443262 -2.979E+01 8.037E+01 -4.275E-02 -1.840E+00 -4.275E-02 -1.840E+00 -2.979E+01 8.037E+01
1154814427 -2.926E+01 8.031E+01 -4.547E-02 -1.957E+00 -4.547E-02 -1.957E+00 -2.926E+01 8.031E+01
1227488271 -2.872E+01 8.023E+01 -4.841E-02 -2.080E+00 -4.841E-02 -2.080E+00 -2.872E+01 8.023E+01
1304735566 -2.820E+01 8.015E+01 -5.157E-02 -2.211E+00 -5.157E-02 -2.211E+00 -2.820E+01 8.015E+01
1386844124 -2.767E+01 8.005E+01 -5.498E-02 -2.350E+00 -5.498E-02 -2.350E+00 -2.767E+01 8.005E+01
1474119872 -2.714E+01 7.995E+01 -5.865E-02 -2.498E+00 -5.865E-02 -2.498E+00 -2.714E+01 7.995E+01
1566887987 -2.661E+01 7.983E+01 -6.262E-02 -2.655E+00 -6.262E-02 -2.655E+00 -2.661E+01 7.983E+01
1665494109 -2.608E+01 7.970E+01 -6.691E-02 -2.822E+00 -6.691E-02 -2.822E+00 -2.608E+01 7.970E+01
1770305631 -2.556E+01 7.956E+01 -7.154E-02 -2.998E+00 -7.154E-02 -2.998E+00 -2.556E+01 7.956E+01
1881713067 -2.503E+01 7.940E+01 -7.656E-02 -3.186E+00 -7.656E-02 -3.186E+00 -2.503E+01 7.940E+01
2000131505 -2.450E+01 7.923E+01 -8.199E-02 -3.385E+00 -8.199E-02 -3.385E+00 -2.450E+01 7.923E+01
2126002157 -2.398E+01 7.905E+01 -8.787E-02 -3.597E+00 -8.787E-02 -3.597E+00 -2.398E+01 7.905E+01
2259793998 -2.345E+01 7.885E+01 -9.425E-02 -3.821E+00 -9.425E-02 -3.821E+00 -2.345E+01 7.885E+01
2402005518 -2.293E+01 7.864E+01 -1.012E-01 -4.059E+00 -1.012E-01 -4.059E+00 -2.293E+01 7.864E+01
2553166578 -2.241E+01 7.841E+01 -1.087E-01 -4.312E+00 -1.087E-01 -4.312E+00 -2.241E+01 7.841E+01
2713840383 -2.188E+01 7.816E+01 -1.168E-01 -4.580E+00 -1.168E-01 -4.580E+00 -2.188E+01 7.816E+01
2884625582 -2.136E+01 7.790E+01 -1.257E-01 -4.864E+00 -1.257E-01 -4.864E+00 -2.136E+01 7.790E+01
3066158496 -2.084E+01 7.762E+01 -1.354E-01 -5.166E+00 -1.354E-01 -5.166E+00 -2.084E+01 7.762E+01
3259115492 -2.032E+01 7.732E+01 -1.459E-01 -5.486E+00 -1.459E-01 -5.486E+00 -2.032E+01 7.732E+01
3464215500 -1.980E+01 7.699E+01 -1.573E-01 -5.825E+00 -1.573E-01 -5.825E+00 -1.980E+01 7.699E+01
3682222696 -1.929E+01 7.665E+01 -1.698E-01 -6.184E+00 -1.698E-01 -6.184E+00 -1.929E+01 7.665E+01
3913949344 -1.877E+01 7.628E+01 -1.835E-01 -6.565E+00 -1.835E-01 -6.565E+00 -1.877E+01 7.628E+01
4160258825 -1.825E+01 7.589E+01 -1.984E-01 -6.968E+00 -1.984E-01 -6.968E+00 -1.825E+01 7.589E+01
4422068854 -1.774E+01 7.548E+01 -2.146E-01 -7.396E+00 -2.146E-01 -7.396E+00 -1.774E+01 7.548E+01
4700354899 -1.723E+01 7.504E+01 -2.324E-01 -7.848E+00 -2.324E-01 -7.848E+00 -1.723E+01 7.504E+01
4996153816 -1.672E+01 7.457E+01 -2.518E-01 -8.327E+00 -2.518E-01 -8.327E+00 -1.672E+01 7.457E+01
5310567709 -1.621E+01 7.408E+01 -2.731E-01 -8.833E+00 -2.731E-01 -8.833E+00 -1.621E+01 7.408E+01
5644768043 -1.570E+01 7.355E+01 -2.964E-01 -9.369E+00 -2.964E-01 -9.369E+00 -1.570E+01 7.355E+01
6000000000 -1.520E+01 7.300E+01 -3.220E-01 -9.935E+00 -3.220E-01 -9.935E+00 -1.520E+01 7.300E+01
