!Murata Part Number:GRM155R71C223KA01
!These Parameters are Measured in Series Mode Connection
!       o--ll--o
!Port1            Port2
!       o------o
!Operation Temp=25[C], DC Bias Voltage=0[V]
!Freq. Start=30[kHz] Stop=6[GHz], 201[Steps]
# Hz S DB R 50
!Freq.[Hz] MagS11[dB] PhaseS11[DEG] MagS21[dB] PhaseS21[DEG] MagS12[dB] PhaseS12[DEG] MagS22[dB] PhaseS22[DEG]
30000 -6.831E-01 -2.172E+01 -8.635E+00 6.756E+01 -8.635E+00 6.756E+01 -6.831E-01 -2.172E+01
31888 -7.619E-01 -2.294E+01 -8.183E+00 6.634E+01 -8.183E+00 6.634E+01 -7.619E-01 -2.294E+01
33895 -8.492E-01 -2.421E+01 -7.741E+00 6.507E+01 -7.741E+00 6.507E+01 -8.492E-01 -2.421E+01
36028 -9.456E-01 -2.554E+01 -7.307E+00 6.374E+01 -7.307E+00 6.374E+01 -9.456E-01 -2.554E+01
38295 -1.052E+00 -2.692E+01 -6.883E+00 6.236E+01 -6.883E+00 6.236E+01 -1.052E+00 -2.692E+01
40705 -1.169E+00 -2.834E+01 -6.470E+00 6.093E+01 -6.470E+00 6.093E+01 -1.169E+00 -2.834E+01
43267 -1.297E+00 -2.982E+01 -6.068E+00 5.946E+01 -6.068E+00 5.946E+01 -1.297E+00 -2.982E+01
45989 -1.437E+00 -3.134E+01 -5.678E+00 5.794E+01 -5.678E+00 5.794E+01 -1.437E+00 -3.134E+01
48884 -1.590E+00 -3.290E+01 -5.300E+00 5.638E+01 -5.300E+00 5.638E+01 -1.590E+00 -3.290E+01
51960 -1.756E+00 -3.450E+01 -4.937E+00 5.478E+01 -4.937E+00 5.478E+01 -1.756E+00 -3.450E+01
55230 -1.936E+00 -3.613E+01 -4.587E+00 5.314E+01 -4.587E+00 5.314E+01 -1.936E+00 -3.613E+01
58705 -2.131E+00 -3.780E+01 -4.252E+00 5.148E+01 -4.252E+00 5.148E+01 -2.131E+00 -3.780E+01
62400 -2.341E+00 -3.949E+01 -3.932E+00 4.979E+01 -3.932E+00 4.979E+01 -2.341E+00 -3.949E+01
66327 -2.567E+00 -4.119E+01 -3.627E+00 4.808E+01 -3.627E+00 4.808E+01 -2.567E+00 -4.119E+01
70501 -2.808E+00 -4.291E+01 -3.338E+00 4.636E+01 -3.338E+00 4.636E+01 -2.808E+00 -4.291E+01
74937 -3.065E+00 -4.464E+01 -3.065E+00 4.464E+01 -3.065E+00 4.464E+01 -3.065E+00 -4.464E+01
79653 -3.338E+00 -4.636E+01 -2.808E+00 4.291E+01 -2.808E+00 4.291E+01 -3.338E+00 -4.636E+01
84666 -3.627E+00 -4.808E+01 -2.567E+00 4.119E+01 -2.567E+00 4.119E+01 -3.627E+00 -4.808E+01
89994 -3.932E+00 -4.978E+01 -2.342E+00 3.948E+01 -2.342E+00 3.948E+01 -3.932E+00 -4.978E+01
95658 -4.252E+00 -5.147E+01 -2.132E+00 3.780E+01 -2.132E+00 3.780E+01 -4.252E+00 -5.147E+01
101677 -4.588E+00 -5.313E+01 -1.937E+00 3.613E+01 -1.937E+00 3.613E+01 -4.588E+00 -5.313E+01
108076 -4.937E+00 -5.477E+01 -1.757E+00 3.450E+01 -1.757E+00 3.450E+01 -4.937E+00 -5.477E+01
114877 -5.301E+00 -5.637E+01 -1.591E+00 3.290E+01 -1.591E+00 3.290E+01 -5.301E+00 -5.637E+01
122107 -5.679E+00 -5.793E+01 -1.438E+00 3.133E+01 -1.438E+00 3.133E+01 -5.679E+00 -5.793E+01
129791 -6.069E+00 -5.945E+01 -1.298E+00 2.981E+01 -1.298E+00 2.981E+01 -6.069E+00 -5.945E+01
137959 -6.471E+00 -6.092E+01 -1.170E+00 2.834E+01 -1.170E+00 2.834E+01 -6.471E+00 -6.092E+01
146641 -6.884E+00 -6.234E+01 -1.053E+00 2.691E+01 -1.053E+00 2.691E+01 -6.884E+00 -6.234E+01
155869 -7.308E+00 -6.372E+01 -9.470E-01 2.554E+01 -9.470E-01 2.554E+01 -7.308E+00 -6.372E+01
165678 -7.742E+00 -6.504E+01 -8.507E-01 2.421E+01 -8.507E-01 2.421E+01 -7.742E+00 -6.504E+01
176105 -8.185E+00 -6.632E+01 -7.635E-01 2.293E+01 -7.635E-01 2.293E+01 -8.185E+00 -6.632E+01
187187 -8.636E+00 -6.754E+01 -6.847E-01 2.171E+01 -6.847E-01 2.171E+01 -8.636E+00 -6.754E+01
198967 -9.095E+00 -6.870E+01 -6.136E-01 2.054E+01 -6.136E-01 2.054E+01 -9.095E+00 -6.870E+01
211488 -9.561E+00 -6.982E+01 -5.496E-01 1.943E+01 -5.496E-01 1.943E+01 -9.561E+00 -6.982E+01
224797 -1.003E+01 -7.088E+01 -4.920E-01 1.836E+01 -4.920E-01 1.836E+01 -1.003E+01 -7.088E+01
238944 -1.051E+01 -7.190E+01 -4.403E-01 1.734E+01 -4.403E-01 1.734E+01 -1.051E+01 -7.190E+01
253981 -1.100E+01 -7.286E+01 -3.939E-01 1.638E+01 -3.939E-01 1.638E+01 -1.100E+01 -7.286E+01
269964 -1.148E+01 -7.377E+01 -3.523E-01 1.546E+01 -3.523E-01 1.546E+01 -1.148E+01 -7.377E+01
286954 -1.198E+01 -7.464E+01 -3.150E-01 1.459E+01 -3.150E-01 1.459E+01 -1.198E+01 -7.464E+01
305012 -1.247E+01 -7.547E+01 -2.817E-01 1.376E+01 -2.817E-01 1.376E+01 -1.247E+01 -7.547E+01
324207 -1.297E+01 -7.625E+01 -2.519E-01 1.297E+01 -2.519E-01 1.297E+01 -1.297E+01 -7.625E+01
344610 -1.348E+01 -7.699E+01 -2.252E-01 1.223E+01 -2.252E-01 1.223E+01 -1.348E+01 -7.699E+01
366296 -1.398E+01 -7.768E+01 -2.014E-01 1.153E+01 -2.014E-01 1.153E+01 -1.398E+01 -7.768E+01
389348 -1.449E+01 -7.834E+01 -1.802E-01 1.086E+01 -1.802E-01 1.086E+01 -1.449E+01 -7.834E+01
413850 -1.500E+01 -7.897E+01 -1.612E-01 1.024E+01 -1.612E-01 1.024E+01 -1.500E+01 -7.897E+01
439894 -1.552E+01 -7.955E+01 -1.443E-01 9.644E+00 -1.443E-01 9.644E+00 -1.552E+01 -7.955E+01
467577 -1.603E+01 -8.011E+01 -1.292E-01 9.084E+00 -1.292E-01 9.084E+00 -1.603E+01 -8.011E+01
497002 -1.655E+01 -8.063E+01 -1.158E-01 8.555E+00 -1.158E-01 8.555E+00 -1.655E+01 -8.063E+01
528279 -1.707E+01 -8.112E+01 -1.038E-01 8.056E+00 -1.038E-01 8.056E+00 -1.707E+01 -8.112E+01
561524 -1.759E+01 -8.159E+01 -9.305E-02 7.586E+00 -9.305E-02 7.586E+00 -1.759E+01 -8.159E+01
596862 -1.811E+01 -8.202E+01 -8.350E-02 7.142E+00 -8.350E-02 7.142E+00 -1.811E+01 -8.202E+01
634423 -1.863E+01 -8.244E+01 -7.499E-02 6.723E+00 -7.499E-02 6.723E+00 -1.863E+01 -8.244E+01
674348 -1.915E+01 -8.282E+01 -6.740E-02 6.329E+00 -6.740E-02 6.329E+00 -1.915E+01 -8.282E+01
716785 -1.968E+01 -8.318E+01 -6.062E-02 5.958E+00 -6.062E-02 5.958E+00 -1.968E+01 -8.318E+01
761893 -2.020E+01 -8.353E+01 -5.458E-02 5.607E+00 -5.458E-02 5.607E+00 -2.020E+01 -8.353E+01
809840 -2.073E+01 -8.385E+01 -4.919E-02 5.278E+00 -4.919E-02 5.278E+00 -2.073E+01 -8.385E+01
860804 -2.125E+01 -8.415E+01 -4.438E-02 4.967E+00 -4.438E-02 4.967E+00 -2.125E+01 -8.415E+01
914976 -2.178E+01 -8.443E+01 -4.008E-02 4.674E+00 -4.008E-02 4.674E+00 -2.178E+01 -8.443E+01
972556 -2.230E+01 -8.469E+01 -3.624E-02 4.399E+00 -3.624E-02 4.399E+00 -2.230E+01 -8.469E+01
1033761 -2.283E+01 -8.494E+01 -3.281E-02 4.139E+00 -3.281E-02 4.139E+00 -2.283E+01 -8.494E+01
1098816 -2.336E+01 -8.517E+01 -2.975E-02 3.895E+00 -2.975E-02 3.895E+00 -2.336E+01 -8.517E+01
1167966 -2.389E+01 -8.538E+01 -2.701E-02 3.665E+00 -2.701E-02 3.665E+00 -2.389E+01 -8.538E+01
1241468 -2.441E+01 -8.559E+01 -2.456E-02 3.449E+00 -2.456E-02 3.449E+00 -2.441E+01 -8.559E+01
1319595 -2.494E+01 -8.577E+01 -2.237E-02 3.245E+00 -2.237E-02 3.245E+00 -2.494E+01 -8.577E+01
1402638 -2.547E+01 -8.595E+01 -2.041E-02 3.053E+00 -2.041E-02 3.053E+00 -2.547E+01 -8.595E+01
1490908 -2.600E+01 -8.611E+01 -1.865E-02 2.872E+00 -1.865E-02 2.872E+00 -2.600E+01 -8.611E+01
1584733 -2.653E+01 -8.626E+01 -1.708E-02 2.702E+00 -1.708E-02 2.702E+00 -2.653E+01 -8.626E+01
1684462 -2.706E+01 -8.640E+01 -1.567E-02 2.542E+00 -1.567E-02 2.542E+00 -2.706E+01 -8.640E+01
1790467 -2.759E+01 -8.653E+01 -1.440E-02 2.392E+00 -1.440E-02 2.392E+00 -2.759E+01 -8.653E+01
1903143 -2.812E+01 -8.665E+01 -1.327E-02 2.250E+00 -1.327E-02 2.250E+00 -2.812E+01 -8.665E+01
2022910 -2.865E+01 -8.676E+01 -1.225E-02 2.117E+00 -1.225E-02 2.117E+00 -2.865E+01 -8.676E+01
2150214 -2.918E+01 -8.685E+01 -1.133E-02 1.991E+00 -1.133E-02 1.991E+00 -2.918E+01 -8.685E+01
2285530 -2.971E+01 -8.694E+01 -1.051E-02 1.873E+00 -1.051E-02 1.873E+00 -2.971E+01 -8.694E+01
2429361 -3.024E+01 -8.702E+01 -9.767E-03 1.762E+00 -9.767E-03 1.762E+00 -3.024E+01 -8.702E+01
2582244 -3.078E+01 -8.710E+01 -9.100E-03 1.657E+00 -9.100E-03 1.657E+00 -3.078E+01 -8.710E+01
2744747 -3.131E+01 -8.716E+01 -8.499E-03 1.558E+00 -8.499E-03 1.558E+00 -3.131E+01 -8.716E+01
2917477 -3.184E+01 -8.722E+01 -7.957E-03 1.466E+00 -7.957E-03 1.466E+00 -3.184E+01 -8.722E+01
3101078 -3.237E+01 -8.726E+01 -7.469E-03 1.378E+00 -7.469E-03 1.378E+00 -3.237E+01 -8.726E+01
3296232 -3.291E+01 -8.730E+01 -7.029E-03 1.296E+00 -7.029E-03 1.296E+00 -3.291E+01 -8.730E+01
3503668 -3.344E+01 -8.734E+01 -6.631E-03 1.219E+00 -6.631E-03 1.219E+00 -3.344E+01 -8.734E+01
3724158 -3.398E+01 -8.736E+01 -6.272E-03 1.146E+00 -6.272E-03 1.146E+00 -3.398E+01 -8.736E+01
3958524 -3.451E+01 -8.738E+01 -5.948E-03 1.077E+00 -5.948E-03 1.077E+00 -3.451E+01 -8.738E+01
4207638 -3.505E+01 -8.738E+01 -5.655E-03 1.013E+00 -5.655E-03 1.013E+00 -3.505E+01 -8.738E+01
4472430 -3.559E+01 -8.739E+01 -5.390E-03 9.521E-01 -5.390E-03 9.521E-01 -3.559E+01 -8.739E+01
4753885 -3.612E+01 -8.738E+01 -5.150E-03 8.949E-01 -5.150E-03 8.949E-01 -3.612E+01 -8.738E+01
5053053 -3.666E+01 -8.736E+01 -4.933E-03 8.410E-01 -4.933E-03 8.410E-01 -3.666E+01 -8.736E+01
5371048 -3.720E+01 -8.734E+01 -4.737E-03 7.902E-01 -4.737E-03 7.902E-01 -3.720E+01 -8.734E+01
5709054 -3.775E+01 -8.731E+01 -4.560E-03 7.424E-01 -4.560E-03 7.424E-01 -3.775E+01 -8.731E+01
6068332 -3.829E+01 -8.727E+01 -4.399E-03 6.973E-01 -4.399E-03 6.973E-01 -3.829E+01 -8.727E+01
6450219 -3.883E+01 -8.722E+01 -4.255E-03 6.548E-01 -4.255E-03 6.548E-01 -3.883E+01 -8.722E+01
6856139 -3.938E+01 -8.716E+01 -4.124E-03 6.148E-01 -4.124E-03 6.148E-01 -3.938E+01 -8.716E+01
7287604 -3.993E+01 -8.709E+01 -4.006E-03 5.770E-01 -4.006E-03 5.770E-01 -3.993E+01 -8.709E+01
7746221 -4.048E+01 -8.701E+01 -3.899E-03 5.414E-01 -3.899E-03 5.414E-01 -4.048E+01 -8.701E+01
8233700 -4.104E+01 -8.692E+01 -3.804E-03 5.078E-01 -3.804E-03 5.078E-01 -4.104E+01 -8.692E+01
8751857 -4.160E+01 -8.681E+01 -3.718E-03 4.761E-01 -3.718E-03 4.761E-01 -4.160E+01 -8.681E+01
9302622 -4.216E+01 -8.670E+01 -3.641E-03 4.462E-01 -3.641E-03 4.462E-01 -4.216E+01 -8.670E+01
9888047 -4.273E+01 -8.656E+01 -3.573E-03 4.179E-01 -3.573E-03 4.179E-01 -4.273E+01 -8.656E+01
10510313 -4.330E+01 -8.642E+01 -3.512E-03 3.912E-01 -3.512E-03 3.912E-01 -4.330E+01 -8.642E+01
11171740 -4.388E+01 -8.625E+01 -3.459E-03 3.660E-01 -3.459E-03 3.660E-01 -4.388E+01 -8.625E+01
11874790 -4.446E+01 -8.606E+01 -3.412E-03 3.421E-01 -3.412E-03 3.421E-01 -4.446E+01 -8.606E+01
12622085 -4.505E+01 -8.586E+01 -3.372E-03 3.195E-01 -3.372E-03 3.195E-01 -4.505E+01 -8.586E+01
13416408 -4.565E+01 -8.563E+01 -3.338E-03 2.981E-01 -3.338E-03 2.981E-01 -4.565E+01 -8.563E+01
14260718 -4.626E+01 -8.537E+01 -3.309E-03 2.777E-01 -3.309E-03 2.777E-01 -4.626E+01 -8.537E+01
15158162 -4.689E+01 -8.508E+01 -3.286E-03 2.585E-01 -3.286E-03 2.585E-01 -4.689E+01 -8.508E+01
16112083 -4.752E+01 -8.475E+01 -3.267E-03 2.402E-01 -3.267E-03 2.402E-01 -4.752E+01 -8.475E+01
17126036 -4.817E+01 -8.438E+01 -3.254E-03 2.227E-01 -3.254E-03 2.227E-01 -4.817E+01 -8.438E+01
18203798 -4.883E+01 -8.397E+01 -3.245E-03 2.061E-01 -3.245E-03 2.061E-01 -4.883E+01 -8.397E+01
19349384 -4.952E+01 -8.350E+01 -3.241E-03 1.903E-01 -3.241E-03 1.903E-01 -4.952E+01 -8.350E+01
20567064 -5.023E+01 -8.296E+01 -3.241E-03 1.752E-01 -3.241E-03 1.752E-01 -5.023E+01 -8.296E+01
21861374 -5.096E+01 -8.233E+01 -3.246E-03 1.608E-01 -3.246E-03 1.608E-01 -5.096E+01 -8.233E+01
23237136 -5.173E+01 -8.161E+01 -3.255E-03 1.469E-01 -3.255E-03 1.469E-01 -5.173E+01 -8.161E+01
24699477 -5.254E+01 -8.076E+01 -3.268E-03 1.336E-01 -3.268E-03 1.336E-01 -5.254E+01 -8.076E+01
26253844 -5.339E+01 -7.976E+01 -3.286E-03 1.208E-01 -3.286E-03 1.208E-01 -5.339E+01 -7.976E+01
27906030 -5.429E+01 -7.856E+01 -3.308E-03 1.084E-01 -3.308E-03 1.084E-01 -5.429E+01 -7.856E+01
29662189 -5.526E+01 -7.710E+01 -3.334E-03 9.644E-02 -3.334E-03 9.644E-02 -5.526E+01 -7.710E+01
31528866 -5.631E+01 -7.529E+01 -3.365E-03 8.483E-02 -3.365E-03 8.483E-02 -5.631E+01 -7.529E+01
33513015 -5.745E+01 -7.300E+01 -3.401E-03 7.355E-02 -3.401E-03 7.355E-02 -5.745E+01 -7.300E+01
35622029 -5.870E+01 -7.002E+01 -3.440E-03 6.253E-02 -3.440E-03 6.253E-02 -5.870E+01 -7.002E+01
37863766 -6.010E+01 -6.602E+01 -3.485E-03 5.175E-02 -3.485E-03 5.175E-02 -6.010E+01 -6.602E+01
40246577 -6.166E+01 -6.045E+01 -3.535E-03 4.117E-02 -3.535E-03 4.117E-02 -6.166E+01 -6.045E+01
42779342 -6.339E+01 -5.238E+01 -3.589E-03 3.074E-02 -3.589E-03 3.074E-02 -6.339E+01 -5.238E+01
45471497 -6.518E+01 -4.029E+01 -3.649E-03 2.042E-02 -3.649E-03 2.042E-02 -6.518E+01 -4.029E+01
48333072 -6.669E+01 -2.255E+01 -3.714E-03 1.017E-02 -3.714E-03 1.017E-02 -6.669E+01 -2.255E+01
51374730 -6.722E+01 6.698E-02 -3.785E-03 -2.920E-05 -3.785E-03 -2.920E-05 -6.722E+01 6.698E-02
54607803 -6.639E+01 2.188E+01 -3.862E-03 -1.023E-02 -3.862E-03 -1.023E-02 -6.639E+01 2.188E+01
58044337 -6.476E+01 3.818E+01 -3.946E-03 -2.048E-02 -3.946E-03 -2.048E-02 -6.476E+01 3.818E+01
61697136 -6.297E+01 4.914E+01 -4.035E-03 -3.079E-02 -4.035E-03 -3.079E-02 -6.297E+01 4.914E+01
65579810 -6.129E+01 5.651E+01 -4.132E-03 -4.123E-02 -4.132E-03 -4.123E-02 -6.129E+01 5.651E+01
69706825 -5.977E+01 6.164E+01 -4.236E-03 -5.181E-02 -4.236E-03 -5.181E-02 -5.977E+01 6.164E+01
74093558 -5.841E+01 6.535E+01 -4.348E-03 -6.259E-02 -4.348E-03 -6.259E-02 -5.841E+01 6.535E+01
78756354 -5.718E+01 6.814E+01 -4.467E-03 -7.360E-02 -4.467E-03 -7.360E-02 -5.718E+01 6.814E+01
83712585 -5.607E+01 7.030E+01 -4.596E-03 -8.489E-02 -4.596E-03 -8.489E-02 -5.607E+01 7.030E+01
88980717 -5.504E+01 7.202E+01 -4.733E-03 -9.649E-02 -4.733E-03 -9.649E-02 -5.504E+01 7.202E+01
94580379 -5.409E+01 7.341E+01 -4.880E-03 -1.084E-01 -4.880E-03 -1.084E-01 -5.409E+01 7.341E+01
100532435 -5.321E+01 7.456E+01 -5.038E-03 -1.208E-01 -5.038E-03 -1.208E-01 -5.321E+01 7.456E+01
106859061 -5.237E+01 7.552E+01 -5.206E-03 -1.336E-01 -5.206E-03 -1.336E-01 -5.237E+01 7.552E+01
113583828 -5.158E+01 7.633E+01 -5.385E-03 -1.469E-01 -5.385E-03 -1.469E-01 -5.158E+01 7.633E+01
120731793 -5.082E+01 7.703E+01 -5.577E-03 -1.608E-01 -5.577E-03 -1.608E-01 -5.082E+01 7.703E+01
128329589 -5.009E+01 7.763E+01 -5.782E-03 -1.752E-01 -5.782E-03 -1.752E-01 -5.009E+01 7.763E+01
136405522 -4.939E+01 7.816E+01 -6.001E-03 -1.904E-01 -6.001E-03 -1.904E-01 -4.939E+01 7.816E+01
144989683 -4.871E+01 7.862E+01 -6.235E-03 -2.062E-01 -6.235E-03 -2.062E-01 -4.871E+01 7.862E+01
154114056 -4.805E+01 7.902E+01 -6.484E-03 -2.228E-01 -6.484E-03 -2.228E-01 -4.805E+01 7.902E+01
163812637 -4.741E+01 7.938E+01 -6.750E-03 -2.402E-01 -6.750E-03 -2.402E-01 -4.741E+01 7.938E+01
174121561 -4.678E+01 7.969E+01 -7.034E-03 -2.585E-01 -7.034E-03 -2.585E-01 -4.678E+01 7.969E+01
185079238 -4.616E+01 7.998E+01 -7.336E-03 -2.777E-01 -7.336E-03 -2.777E-01 -4.616E+01 7.998E+01
196726494 -4.556E+01 8.023E+01 -7.660E-03 -2.980E-01 -7.660E-03 -2.980E-01 -4.556E+01 8.023E+01
209106726 -4.496E+01 8.045E+01 -8.005E-03 -3.194E-01 -8.005E-03 -3.194E-01 -4.496E+01 8.045E+01
222266060 -4.437E+01 8.066E+01 -8.373E-03 -3.420E-01 -8.373E-03 -3.420E-01 -4.437E+01 8.066E+01
236253527 -4.379E+01 8.084E+01 -8.765E-03 -3.659E-01 -8.765E-03 -3.659E-01 -4.379E+01 8.084E+01
251121243 -4.322E+01 8.100E+01 -9.185E-03 -3.911E-01 -9.185E-03 -3.911E-01 -4.322E+01 8.100E+01
266924601 -4.265E+01 8.114E+01 -9.632E-03 -4.178E-01 -9.632E-03 -4.178E-01 -4.265E+01 8.114E+01
283722483 -4.208E+01 8.127E+01 -1.011E-02 -4.460E-01 -1.011E-02 -4.460E-01 -4.208E+01 8.127E+01
301577476 -4.152E+01 8.139E+01 -1.062E-02 -4.759E-01 -1.062E-02 -4.759E-01 -4.152E+01 8.139E+01
320556104 -4.097E+01 8.149E+01 -1.117E-02 -5.076E-01 -1.117E-02 -5.076E-01 -4.097E+01 8.149E+01
340729081 -4.041E+01 8.158E+01 -1.175E-02 -5.411E-01 -1.175E-02 -5.411E-01 -4.041E+01 8.158E+01
362171566 -3.986E+01 8.166E+01 -1.237E-02 -5.767E-01 -1.237E-02 -5.767E-01 -3.986E+01 8.166E+01
384963453 -3.932E+01 8.173E+01 -1.303E-02 -6.143E-01 -1.303E-02 -6.143E-01 -3.932E+01 8.173E+01
409189661 -3.877E+01 8.178E+01 -1.375E-02 -6.543E-01 -1.375E-02 -6.543E-01 -3.877E+01 8.178E+01
434940452 -3.823E+01 8.183E+01 -1.451E-02 -6.967E-01 -1.451E-02 -6.967E-01 -3.823E+01 8.183E+01
462311771 -3.769E+01 8.187E+01 -1.532E-02 -7.417E-01 -1.532E-02 -7.417E-01 -3.769E+01 8.187E+01
491405600 -3.715E+01 8.190E+01 -1.619E-02 -7.894E-01 -1.619E-02 -7.894E-01 -3.715E+01 8.190E+01
522330338 -3.661E+01 8.192E+01 -1.712E-02 -8.401E-01 -1.712E-02 -8.401E-01 -3.661E+01 8.192E+01
555201207 -3.607E+01 8.194E+01 -1.812E-02 -8.939E-01 -1.812E-02 -8.939E-01 -3.607E+01 8.194E+01
590140678 -3.553E+01 8.194E+01 -1.919E-02 -9.509E-01 -1.919E-02 -9.509E-01 -3.553E+01 8.194E+01
627278932 -3.500E+01 8.194E+01 -2.033E-02 -1.012E+00 -2.033E-02 -1.012E+00 -3.500E+01 8.194E+01
666754340 -3.446E+01 8.193E+01 -2.156E-02 -1.076E+00 -2.156E-02 -1.076E+00 -3.446E+01 8.193E+01
708713982 -3.393E+01 8.192E+01 -2.287E-02 -1.144E+00 -2.287E-02 -1.144E+00 -3.393E+01 8.192E+01
753314195 -3.340E+01 8.189E+01 -2.429E-02 -1.217E+00 -2.429E-02 -1.217E+00 -3.340E+01 8.189E+01
800721152 -3.286E+01 8.186E+01 -2.580E-02 -1.294E+00 -2.580E-02 -1.294E+00 -3.286E+01 8.186E+01
851111485 -3.233E+01 8.182E+01 -2.743E-02 -1.376E+00 -2.743E-02 -1.376E+00 -3.233E+01 8.182E+01
904672942 -3.180E+01 8.177E+01 -2.918E-02 -1.463E+00 -2.918E-02 -1.463E+00 -3.180E+01 8.177E+01
961605085 -3.127E+01 8.172E+01 -3.106E-02 -1.555E+00 -3.106E-02 -1.555E+00 -3.127E+01 8.172E+01
1022120035 -3.074E+01 8.165E+01 -3.309E-02 -1.653E+00 -3.309E-02 -1.653E+00 -3.074E+01 8.165E+01
1086443262 -3.021E+01 8.158E+01 -3.527E-02 -1.757E+00 -3.527E-02 -1.757E+00 -3.021E+01 8.158E+01
1154814427 -2.968E+01 8.150E+01 -3.761E-02 -1.868E+00 -3.761E-02 -1.868E+00 -2.968E+01 8.150E+01
1227488271 -2.915E+01 8.141E+01 -4.014E-02 -1.985E+00 -4.014E-02 -1.985E+00 -2.915E+01 8.141E+01
1304735566 -2.862E+01 8.131E+01 -4.287E-02 -2.110E+00 -4.287E-02 -2.110E+00 -2.862E+01 8.131E+01
1386844124 -2.809E+01 8.120E+01 -4.581E-02 -2.242E+00 -4.581E-02 -2.242E+00 -2.809E+01 8.120E+01
1474119872 -2.757E+01 8.109E+01 -4.899E-02 -2.383E+00 -4.899E-02 -2.383E+00 -2.757E+01 8.109E+01
1566887987 -2.704E+01 8.096E+01 -5.242E-02 -2.532E+00 -5.242E-02 -2.532E+00 -2.704E+01 8.096E+01
1665494109 -2.651E+01 8.082E+01 -5.613E-02 -2.691E+00 -5.613E-02 -2.691E+00 -2.651E+01 8.082E+01
1770305631 -2.598E+01 8.067E+01 -6.015E-02 -2.860E+00 -6.015E-02 -2.860E+00 -2.598E+01 8.067E+01
1881713067 -2.546E+01 8.051E+01 -6.450E-02 -3.038E+00 -6.450E-02 -3.038E+00 -2.546E+01 8.051E+01
2000131505 -2.493E+01 8.034E+01 -6.922E-02 -3.228E+00 -6.922E-02 -3.228E+00 -2.493E+01 8.034E+01
2126002157 -2.441E+01 8.015E+01 -7.433E-02 -3.430E+00 -7.433E-02 -3.430E+00 -2.441E+01 8.015E+01
2259793998 -2.388E+01 7.995E+01 -7.988E-02 -3.644E+00 -7.988E-02 -3.644E+00 -2.388E+01 7.995E+01
2402005518 -2.336E+01 7.974E+01 -8.590E-02 -3.871E+00 -8.590E-02 -3.871E+00 -2.336E+01 7.974E+01
2553166578 -2.283E+01 7.951E+01 -9.245E-02 -4.112E+00 -9.245E-02 -4.112E+00 -2.283E+01 7.951E+01
2713840383 -2.231E+01 7.927E+01 -9.958E-02 -4.368E+00 -9.958E-02 -4.368E+00 -2.231E+01 7.927E+01
2884625582 -2.179E+01 7.901E+01 -1.073E-01 -4.640E+00 -1.073E-01 -4.640E+00 -2.179E+01 7.901E+01
3066158496 -2.127E+01 7.873E+01 -1.158E-01 -4.928E+00 -1.158E-01 -4.928E+00 -2.127E+01 7.873E+01
3259115492 -2.075E+01 7.844E+01 -1.250E-01 -5.233E+00 -1.250E-01 -5.233E+00 -2.075E+01 7.844E+01
3464215500 -2.023E+01 7.812E+01 -1.350E-01 -5.557E+00 -1.350E-01 -5.557E+00 -2.023E+01 7.812E+01
3682222696 -1.971E+01 7.779E+01 -1.460E-01 -5.901E+00 -1.460E-01 -5.901E+00 -1.971E+01 7.779E+01
3913949344 -1.919E+01 7.743E+01 -1.580E-01 -6.265E+00 -1.580E-01 -6.265E+00 -1.919E+01 7.743E+01
4160258825 -1.867E+01 7.705E+01 -1.711E-01 -6.651E+00 -1.711E-01 -6.651E+00 -1.867E+01 7.705E+01
4422068854 -1.816E+01 7.665E+01 -1.855E-01 -7.060E+00 -1.855E-01 -7.060E+00 -1.816E+01 7.665E+01
4700354899 -1.764E+01 7.623E+01 -2.012E-01 -7.494E+00 -2.012E-01 -7.494E+00 -1.764E+01 7.623E+01
4996153816 -1.713E+01 7.577E+01 -2.184E-01 -7.953E+00 -2.184E-01 -7.953E+00 -1.713E+01 7.577E+01
5310567709 -1.662E+01 7.529E+01 -2.372E-01 -8.438E+00 -2.372E-01 -8.438E+00 -1.662E+01 7.529E+01
5644768043 -1.611E+01 7.479E+01 -2.579E-01 -8.952E+00 -2.579E-01 -8.952E+00 -1.611E+01 7.479E+01
6000000000 -1.560E+01 7.425E+01 -2.806E-01 -9.496E+00 -2.806E-01 -9.496E+00 -1.560E+01 7.425E+01
