!Murata Part Number:GRM155R61A224KE19
!These Parameters are Measured in Series Mode Connection
!       o--ll--o
!Port1            Port2
!       o------o
!Operation Temp=25[C], DC Bias Voltage=0[V]
!Freq. Start=30[kHz] Stop=6[GHz], 201[Steps]
# Hz S DB R 50
!Freq.[Hz] MagS11[dB] PhaseS11[DEG] MagS21[dB] PhaseS21[DEG] MagS12[dB] PhaseS12[DEG] MagS22[dB] PhaseS22[DEG]
30000 -1.145E+01 -7.195E+01 -4.298E-01 1.550E+01 -4.298E-01 1.550E+01 -1.145E+01 -7.195E+01
31888 -1.194E+01 -7.281E+01 -3.881E-01 1.463E+01 -3.881E-01 1.463E+01 -1.194E+01 -7.281E+01
33895 -1.243E+01 -7.364E+01 -3.505E-01 1.381E+01 -3.505E-01 1.381E+01 -1.243E+01 -7.364E+01
36028 -1.293E+01 -7.442E+01 -3.167E-01 1.303E+01 -3.167E-01 1.303E+01 -1.293E+01 -7.442E+01
38295 -1.343E+01 -7.515E+01 -2.862E-01 1.229E+01 -2.862E-01 1.229E+01 -1.343E+01 -7.515E+01
40705 -1.393E+01 -7.585E+01 -2.588E-01 1.159E+01 -2.588E-01 1.159E+01 -1.393E+01 -7.585E+01
43267 -1.444E+01 -7.652E+01 -2.341E-01 1.093E+01 -2.341E-01 1.093E+01 -1.444E+01 -7.652E+01
45989 -1.495E+01 -7.714E+01 -2.119E-01 1.030E+01 -2.119E-01 1.030E+01 -1.495E+01 -7.714E+01
48884 -1.546E+01 -7.773E+01 -1.919E-01 9.705E+00 -1.919E-01 9.705E+00 -1.546E+01 -7.773E+01
51960 -1.597E+01 -7.829E+01 -1.740E-01 9.144E+00 -1.740E-01 9.144E+00 -1.597E+01 -7.829E+01
55230 -1.648E+01 -7.882E+01 -1.578E-01 8.615E+00 -1.578E-01 8.615E+00 -1.648E+01 -7.882E+01
58705 -1.700E+01 -7.932E+01 -1.432E-01 8.115E+00 -1.432E-01 8.115E+00 -1.700E+01 -7.932E+01
62400 -1.751E+01 -7.978E+01 -1.300E-01 7.643E+00 -1.300E-01 7.643E+00 -1.751E+01 -7.978E+01
66327 -1.803E+01 -8.023E+01 -1.182E-01 7.198E+00 -1.182E-01 7.198E+00 -1.803E+01 -8.023E+01
70501 -1.855E+01 -8.064E+01 -1.075E-01 6.778E+00 -1.075E-01 6.778E+00 -1.855E+01 -8.064E+01
74937 -1.907E+01 -8.104E+01 -9.790E-02 6.382E+00 -9.790E-02 6.382E+00 -1.907E+01 -8.104E+01
79653 -1.959E+01 -8.141E+01 -8.922E-02 6.009E+00 -8.922E-02 6.009E+00 -1.959E+01 -8.141E+01
84666 -2.012E+01 -8.176E+01 -8.138E-02 5.657E+00 -8.138E-02 5.657E+00 -2.012E+01 -8.176E+01
89994 -2.064E+01 -8.208E+01 -7.430E-02 5.326E+00 -7.430E-02 5.326E+00 -2.064E+01 -8.208E+01
95658 -2.116E+01 -8.239E+01 -6.790E-02 5.013E+00 -6.790E-02 5.013E+00 -2.116E+01 -8.239E+01
101677 -2.169E+01 -8.268E+01 -6.211E-02 4.719E+00 -6.211E-02 4.719E+00 -2.169E+01 -8.268E+01
108076 -2.221E+01 -8.295E+01 -5.686E-02 4.441E+00 -5.686E-02 4.441E+00 -2.221E+01 -8.295E+01
114877 -2.274E+01 -8.321E+01 -5.211E-02 4.180E+00 -5.211E-02 4.180E+00 -2.274E+01 -8.321E+01
122107 -2.326E+01 -8.345E+01 -4.781E-02 3.934E+00 -4.781E-02 3.934E+00 -2.326E+01 -8.345E+01
129791 -2.379E+01 -8.368E+01 -4.390E-02 3.703E+00 -4.390E-02 3.703E+00 -2.379E+01 -8.368E+01
137959 -2.432E+01 -8.389E+01 -4.036E-02 3.485E+00 -4.036E-02 3.485E+00 -2.432E+01 -8.389E+01
146641 -2.484E+01 -8.409E+01 -3.714E-02 3.279E+00 -3.714E-02 3.279E+00 -2.484E+01 -8.409E+01
155869 -2.537E+01 -8.428E+01 -3.421E-02 3.086E+00 -3.421E-02 3.086E+00 -2.537E+01 -8.428E+01
165678 -2.590E+01 -8.445E+01 -3.154E-02 2.904E+00 -3.154E-02 2.904E+00 -2.590E+01 -8.445E+01
176105 -2.642E+01 -8.462E+01 -2.911E-02 2.733E+00 -2.911E-02 2.733E+00 -2.642E+01 -8.462E+01
187187 -2.695E+01 -8.477E+01 -2.689E-02 2.571E+00 -2.689E-02 2.571E+00 -2.695E+01 -8.477E+01
198967 -2.748E+01 -8.491E+01 -2.487E-02 2.420E+00 -2.487E-02 2.420E+00 -2.748E+01 -8.491E+01
211488 -2.801E+01 -8.505E+01 -2.302E-02 2.277E+00 -2.302E-02 2.277E+00 -2.801E+01 -8.505E+01
224797 -2.854E+01 -8.517E+01 -2.133E-02 2.142E+00 -2.133E-02 2.142E+00 -2.854E+01 -8.517E+01
238944 -2.907E+01 -8.529E+01 -1.979E-02 2.016E+00 -1.979E-02 2.016E+00 -2.907E+01 -8.529E+01
253981 -2.960E+01 -8.540E+01 -1.837E-02 1.897E+00 -1.837E-02 1.897E+00 -2.960E+01 -8.540E+01
269964 -3.012E+01 -8.550E+01 -1.707E-02 1.784E+00 -1.707E-02 1.784E+00 -3.012E+01 -8.550E+01
286954 -3.065E+01 -8.559E+01 -1.588E-02 1.679E+00 -1.588E-02 1.679E+00 -3.065E+01 -8.559E+01
305012 -3.118E+01 -8.568E+01 -1.479E-02 1.580E+00 -1.479E-02 1.580E+00 -3.118E+01 -8.568E+01
324207 -3.171E+01 -8.576E+01 -1.378E-02 1.486E+00 -1.378E-02 1.486E+00 -3.171E+01 -8.576E+01
344610 -3.224E+01 -8.583E+01 -1.286E-02 1.398E+00 -1.286E-02 1.398E+00 -3.224E+01 -8.583E+01
366296 -3.277E+01 -8.590E+01 -1.201E-02 1.316E+00 -1.201E-02 1.316E+00 -3.277E+01 -8.590E+01
389348 -3.330E+01 -8.596E+01 -1.122E-02 1.238E+00 -1.122E-02 1.238E+00 -3.330E+01 -8.596E+01
413850 -3.383E+01 -8.601E+01 -1.050E-02 1.164E+00 -1.050E-02 1.164E+00 -3.383E+01 -8.601E+01
439894 -3.436E+01 -8.606E+01 -9.834E-03 1.095E+00 -9.834E-03 1.095E+00 -3.436E+01 -8.606E+01
467577 -3.489E+01 -8.611E+01 -9.218E-03 1.031E+00 -9.218E-03 1.031E+00 -3.489E+01 -8.611E+01
497002 -3.542E+01 -8.615E+01 -8.648E-03 9.696E-01 -8.648E-03 9.696E-01 -3.542E+01 -8.615E+01
528279 -3.595E+01 -8.618E+01 -8.121E-03 9.121E-01 -8.121E-03 9.121E-01 -3.595E+01 -8.618E+01
561524 -3.648E+01 -8.621E+01 -7.634E-03 8.581E-01 -7.634E-03 8.581E-01 -3.648E+01 -8.621E+01
596862 -3.701E+01 -8.624E+01 -7.182E-03 8.072E-01 -7.182E-03 8.072E-01 -3.701E+01 -8.624E+01
634423 -3.754E+01 -8.626E+01 -6.763E-03 7.593E-01 -6.763E-03 7.593E-01 -3.754E+01 -8.626E+01
674348 -3.807E+01 -8.627E+01 -6.375E-03 7.143E-01 -6.375E-03 7.143E-01 -3.807E+01 -8.627E+01
716785 -3.860E+01 -8.628E+01 -6.015E-03 6.719E-01 -6.015E-03 6.719E-01 -3.860E+01 -8.628E+01
761893 -3.914E+01 -8.629E+01 -5.680E-03 6.320E-01 -5.680E-03 6.320E-01 -3.914E+01 -8.629E+01
809840 -3.967E+01 -8.629E+01 -5.370E-03 5.945E-01 -5.370E-03 5.945E-01 -3.967E+01 -8.629E+01
860804 -4.020E+01 -8.629E+01 -5.081E-03 5.591E-01 -5.081E-03 5.591E-01 -4.020E+01 -8.629E+01
914976 -4.073E+01 -8.628E+01 -4.812E-03 5.259E-01 -4.812E-03 5.259E-01 -4.073E+01 -8.628E+01
972556 -4.126E+01 -8.627E+01 -4.562E-03 4.946E-01 -4.562E-03 4.946E-01 -4.126E+01 -8.627E+01
1033761 -4.180E+01 -8.625E+01 -4.330E-03 4.651E-01 -4.330E-03 4.651E-01 -4.180E+01 -8.625E+01
1098816 -4.233E+01 -8.623E+01 -4.113E-03 4.374E-01 -4.113E-03 4.374E-01 -4.233E+01 -8.623E+01
1167966 -4.286E+01 -8.620E+01 -3.912E-03 4.113E-01 -3.912E-03 4.113E-01 -4.286E+01 -8.620E+01
1241468 -4.340E+01 -8.617E+01 -3.724E-03 3.868E-01 -3.724E-03 3.868E-01 -4.340E+01 -8.617E+01
1319595 -4.393E+01 -8.614E+01 -3.548E-03 3.636E-01 -3.548E-03 3.636E-01 -4.393E+01 -8.614E+01
1402638 -4.447E+01 -8.609E+01 -3.385E-03 3.419E-01 -3.385E-03 3.419E-01 -4.447E+01 -8.609E+01
1490908 -4.500E+01 -8.604E+01 -3.233E-03 3.214E-01 -3.233E-03 3.214E-01 -4.500E+01 -8.604E+01
1584733 -4.554E+01 -8.599E+01 -3.091E-03 3.021E-01 -3.091E-03 3.021E-01 -4.554E+01 -8.599E+01
1684462 -4.608E+01 -8.593E+01 -2.959E-03 2.839E-01 -2.959E-03 2.839E-01 -4.608E+01 -8.593E+01
1790467 -4.662E+01 -8.586E+01 -2.835E-03 2.668E-01 -2.835E-03 2.668E-01 -4.662E+01 -8.586E+01
1903143 -4.716E+01 -8.578E+01 -2.720E-03 2.507E-01 -2.720E-03 2.507E-01 -4.716E+01 -8.578E+01
2022910 -4.770E+01 -8.570E+01 -2.612E-03 2.355E-01 -2.612E-03 2.355E-01 -4.770E+01 -8.570E+01
2150214 -4.825E+01 -8.560E+01 -2.512E-03 2.211E-01 -2.512E-03 2.211E-01 -4.825E+01 -8.560E+01
2285530 -4.879E+01 -8.550E+01 -2.419E-03 2.077E-01 -2.419E-03 2.077E-01 -4.879E+01 -8.550E+01
2429361 -4.934E+01 -8.539E+01 -2.332E-03 1.949E-01 -2.332E-03 1.949E-01 -4.934E+01 -8.539E+01
2582244 -4.989E+01 -8.527E+01 -2.250E-03 1.829E-01 -2.250E-03 1.829E-01 -4.989E+01 -8.527E+01
2744747 -5.044E+01 -8.514E+01 -2.175E-03 1.716E-01 -2.175E-03 1.716E-01 -5.044E+01 -8.514E+01
2917477 -5.100E+01 -8.499E+01 -2.105E-03 1.610E-01 -2.105E-03 1.610E-01 -5.100E+01 -8.499E+01
3101078 -5.156E+01 -8.483E+01 -2.039E-03 1.509E-01 -2.039E-03 1.509E-01 -5.156E+01 -8.483E+01
3296232 -5.212E+01 -8.466E+01 -1.978E-03 1.414E-01 -1.978E-03 1.414E-01 -5.212E+01 -8.466E+01
3503668 -5.269E+01 -8.446E+01 -1.922E-03 1.324E-01 -1.922E-03 1.324E-01 -5.269E+01 -8.446E+01
3724158 -5.326E+01 -8.425E+01 -1.870E-03 1.239E-01 -1.870E-03 1.239E-01 -5.326E+01 -8.425E+01
3958524 -5.384E+01 -8.402E+01 -1.821E-03 1.159E-01 -1.821E-03 1.159E-01 -5.384E+01 -8.402E+01
4207638 -5.442E+01 -8.377E+01 -1.777E-03 1.083E-01 -1.777E-03 1.083E-01 -5.442E+01 -8.377E+01
4472430 -5.501E+01 -8.349E+01 -1.735E-03 1.011E-01 -1.735E-03 1.011E-01 -5.501E+01 -8.349E+01
4753885 -5.562E+01 -8.318E+01 -1.697E-03 9.426E-02 -1.697E-03 9.426E-02 -5.562E+01 -8.318E+01
5053053 -5.623E+01 -8.284E+01 -1.663E-03 8.780E-02 -1.663E-03 8.780E-02 -5.623E+01 -8.284E+01
5371048 -5.685E+01 -8.245E+01 -1.631E-03 8.166E-02 -1.631E-03 8.166E-02 -5.685E+01 -8.245E+01
5709054 -5.748E+01 -8.203E+01 -1.602E-03 7.582E-02 -1.602E-03 7.582E-02 -5.748E+01 -8.203E+01
6068332 -5.813E+01 -8.155E+01 -1.576E-03 7.027E-02 -1.576E-03 7.027E-02 -5.813E+01 -8.155E+01
6450219 -5.880E+01 -8.101E+01 -1.552E-03 6.498E-02 -1.552E-03 6.498E-02 -5.880E+01 -8.101E+01
6856139 -5.949E+01 -8.040E+01 -1.531E-03 5.993E-02 -1.531E-03 5.993E-02 -5.949E+01 -8.040E+01
7287604 -6.020E+01 -7.971E+01 -1.513E-03 5.510E-02 -1.513E-03 5.510E-02 -6.020E+01 -7.971E+01
7746221 -6.094E+01 -7.891E+01 -1.497E-03 5.048E-02 -1.497E-03 5.048E-02 -6.094E+01 -7.891E+01
8233700 -6.171E+01 -7.798E+01 -1.483E-03 4.605E-02 -1.483E-03 4.605E-02 -6.171E+01 -7.798E+01
8751857 -6.251E+01 -7.690E+01 -1.471E-03 4.179E-02 -1.471E-03 4.179E-02 -6.251E+01 -7.690E+01
9302622 -6.336E+01 -7.563E+01 -1.462E-03 3.768E-02 -1.462E-03 3.768E-02 -6.336E+01 -7.563E+01
9888047 -6.427E+01 -7.410E+01 -1.455E-03 3.372E-02 -1.455E-03 3.372E-02 -6.427E+01 -7.410E+01
10510313 -6.523E+01 -7.224E+01 -1.450E-03 2.988E-02 -1.450E-03 2.988E-02 -6.523E+01 -7.224E+01
11171740 -6.627E+01 -6.994E+01 -1.447E-03 2.615E-02 -1.447E-03 2.615E-02 -6.627E+01 -6.994E+01
11874790 -6.740E+01 -6.704E+01 -1.446E-03 2.252E-02 -1.446E-03 2.252E-02 -6.740E+01 -6.704E+01
12622085 -6.862E+01 -6.328E+01 -1.447E-03 1.897E-02 -1.447E-03 1.897E-02 -6.862E+01 -6.328E+01
13416408 -6.996E+01 -5.830E+01 -1.450E-03 1.550E-02 -1.450E-03 1.550E-02 -6.996E+01 -5.830E+01
14260718 -7.140E+01 -5.151E+01 -1.456E-03 1.208E-02 -1.456E-03 1.208E-02 -7.140E+01 -5.151E+01
15158162 -7.289E+01 -4.204E+01 -1.463E-03 8.706E-03 -1.463E-03 8.706E-03 -7.289E+01 -4.204E+01
16112083 -7.426E+01 -2.890E+01 -1.473E-03 5.365E-03 -1.473E-03 5.365E-03 -7.426E+01 -2.890E+01
17126036 -7.516E+01 -1.179E+01 -1.485E-03 2.044E-03 -1.485E-03 2.044E-03 -7.516E+01 -1.179E+01
18203798 -7.519E+01 7.314E+00 -1.499E-03 -1.269E-03 -1.499E-03 -1.269E-03 -7.519E+01 7.314E+00
19349384 -7.434E+01 2.465E+01 -1.515E-03 -4.587E-03 -1.515E-03 -4.587E-03 -7.434E+01 2.465E+01
20567064 -7.298E+01 3.805E+01 -1.534E-03 -7.922E-03 -1.534E-03 -7.922E-03 -7.298E+01 3.805E+01
21861374 -7.150E+01 4.773E+01 -1.555E-03 -1.129E-02 -1.555E-03 -1.129E-02 -7.150E+01 4.773E+01
23237136 -7.005E+01 5.466E+01 -1.579E-03 -1.469E-02 -1.579E-03 -1.469E-02 -7.005E+01 5.466E+01
24699477 -6.871E+01 5.974E+01 -1.605E-03 -1.815E-02 -1.605E-03 -1.815E-02 -6.871E+01 5.974E+01
26253844 -6.748E+01 6.356E+01 -1.634E-03 -2.168E-02 -1.634E-03 -2.168E-02 -6.748E+01 6.356E+01
27906030 -6.635E+01 6.651E+01 -1.666E-03 -2.529E-02 -1.666E-03 -2.529E-02 -6.635E+01 6.651E+01
29662189 -6.531E+01 6.884E+01 -1.700E-03 -2.900E-02 -1.700E-03 -2.900E-02 -6.531E+01 6.884E+01
31528866 -6.434E+01 7.072E+01 -1.738E-03 -3.281E-02 -1.738E-03 -3.281E-02 -6.434E+01 7.072E+01
33513015 -6.344E+01 7.227E+01 -1.779E-03 -3.674E-02 -1.779E-03 -3.674E-02 -6.344E+01 7.227E+01
35622029 -6.259E+01 7.356E+01 -1.823E-03 -4.081E-02 -1.823E-03 -4.081E-02 -6.259E+01 7.356E+01
37863766 -6.178E+01 7.466E+01 -1.870E-03 -4.504E-02 -1.870E-03 -4.504E-02 -6.178E+01 7.466E+01
40246577 -6.101E+01 7.559E+01 -1.922E-03 -4.943E-02 -1.922E-03 -4.943E-02 -6.101E+01 7.559E+01
42779342 -6.027E+01 7.640E+01 -1.977E-03 -5.400E-02 -1.977E-03 -5.400E-02 -6.027E+01 7.640E+01
45471497 -5.956E+01 7.710E+01 -2.036E-03 -5.878E-02 -2.036E-03 -5.878E-02 -5.956E+01 7.710E+01
48333072 -5.887E+01 7.771E+01 -2.100E-03 -6.377E-02 -2.100E-03 -6.377E-02 -5.887E+01 7.771E+01
51374730 -5.820E+01 7.825E+01 -2.168E-03 -6.901E-02 -2.168E-03 -6.901E-02 -5.820E+01 7.825E+01
54607803 -5.755E+01 7.874E+01 -2.242E-03 -7.449E-02 -2.242E-03 -7.449E-02 -5.755E+01 7.874E+01
58044337 -5.692E+01 7.917E+01 -2.320E-03 -8.026E-02 -2.320E-03 -8.026E-02 -5.692E+01 7.917E+01
61697136 -5.630E+01 7.955E+01 -2.403E-03 -8.633E-02 -2.403E-03 -8.633E-02 -5.630E+01 7.955E+01
65579810 -5.569E+01 7.990E+01 -2.493E-03 -9.271E-02 -2.493E-03 -9.271E-02 -5.569E+01 7.990E+01
69706825 -5.509E+01 8.021E+01 -2.588E-03 -9.945E-02 -2.588E-03 -9.945E-02 -5.509E+01 8.021E+01
74093558 -5.449E+01 8.049E+01 -2.690E-03 -1.065E-01 -2.690E-03 -1.065E-01 -5.449E+01 8.049E+01
78756354 -5.391E+01 8.075E+01 -2.799E-03 -1.140E-01 -2.799E-03 -1.140E-01 -5.391E+01 8.075E+01
83712585 -5.333E+01 8.098E+01 -2.916E-03 -1.220E-01 -2.916E-03 -1.220E-01 -5.333E+01 8.098E+01
88980717 -5.276E+01 8.119E+01 -3.040E-03 -1.303E-01 -3.040E-03 -1.303E-01 -5.276E+01 8.119E+01
94580379 -5.219E+01 8.138E+01 -3.172E-03 -1.392E-01 -3.172E-03 -1.392E-01 -5.219E+01 8.138E+01
100532435 -5.163E+01 8.156E+01 -3.313E-03 -1.486E-01 -3.313E-03 -1.486E-01 -5.163E+01 8.156E+01
106859061 -5.107E+01 8.172E+01 -3.464E-03 -1.585E-01 -3.464E-03 -1.585E-01 -5.107E+01 8.172E+01
113583828 -5.052E+01 8.187E+01 -3.624E-03 -1.691E-01 -3.624E-03 -1.691E-01 -5.052E+01 8.187E+01
120731793 -4.997E+01 8.200E+01 -3.795E-03 -1.802E-01 -3.795E-03 -1.802E-01 -4.997E+01 8.200E+01
128329589 -4.942E+01 8.212E+01 -3.977E-03 -1.920E-01 -3.977E-03 -1.920E-01 -4.942E+01 8.212E+01
136405522 -4.887E+01 8.224E+01 -4.172E-03 -2.046E-01 -4.172E-03 -2.046E-01 -4.887E+01 8.224E+01
144989683 -4.832E+01 8.234E+01 -4.379E-03 -2.179E-01 -4.379E-03 -2.179E-01 -4.832E+01 8.234E+01
154114056 -4.778E+01 8.243E+01 -4.600E-03 -2.320E-01 -4.600E-03 -2.320E-01 -4.778E+01 8.243E+01
163812637 -4.724E+01 8.252E+01 -4.835E-03 -2.470E-01 -4.835E-03 -2.470E-01 -4.724E+01 8.252E+01
174121561 -4.670E+01 8.259E+01 -5.087E-03 -2.629E-01 -5.087E-03 -2.629E-01 -4.670E+01 8.259E+01
185079238 -4.616E+01 8.266E+01 -5.354E-03 -2.797E-01 -5.354E-03 -2.797E-01 -4.616E+01 8.266E+01
196726494 -4.562E+01 8.273E+01 -5.640E-03 -2.976E-01 -5.640E-03 -2.976E-01 -4.562E+01 8.273E+01
209106726 -4.509E+01 8.278E+01 -5.945E-03 -3.167E-01 -5.945E-03 -3.167E-01 -4.509E+01 8.278E+01
222266060 -4.455E+01 8.283E+01 -6.270E-03 -3.369E-01 -6.270E-03 -3.369E-01 -4.455E+01 8.283E+01
236253527 -4.402E+01 8.288E+01 -6.616E-03 -3.583E-01 -6.616E-03 -3.583E-01 -4.402E+01 8.288E+01
251121243 -4.348E+01 8.291E+01 -6.986E-03 -3.811E-01 -6.986E-03 -3.811E-01 -4.348E+01 8.291E+01
266924601 -4.295E+01 8.295E+01 -7.381E-03 -4.053E-01 -7.381E-03 -4.053E-01 -4.295E+01 8.295E+01
283722483 -4.242E+01 8.297E+01 -7.802E-03 -4.310E-01 -7.802E-03 -4.310E-01 -4.242E+01 8.297E+01
301577476 -4.188E+01 8.300E+01 -8.252E-03 -4.583E-01 -8.252E-03 -4.583E-01 -4.188E+01 8.300E+01
320556104 -4.135E+01 8.301E+01 -8.732E-03 -4.873E-01 -8.732E-03 -4.873E-01 -4.135E+01 8.301E+01
340729081 -4.082E+01 8.303E+01 -9.245E-03 -5.181E-01 -9.245E-03 -5.181E-01 -4.082E+01 8.303E+01
362171566 -4.029E+01 8.304E+01 -9.794E-03 -5.509E-01 -9.794E-03 -5.509E-01 -4.029E+01 8.304E+01
384963453 -3.976E+01 8.304E+01 -1.038E-02 -5.857E-01 -1.038E-02 -5.857E-01 -3.976E+01 8.304E+01
409189661 -3.922E+01 8.304E+01 -1.101E-02 -6.226E-01 -1.101E-02 -6.226E-01 -3.922E+01 8.304E+01
434940452 -3.869E+01 8.303E+01 -1.167E-02 -6.619E-01 -1.167E-02 -6.619E-01 -3.869E+01 8.303E+01
462311771 -3.816E+01 8.302E+01 -1.239E-02 -7.036E-01 -1.239E-02 -7.036E-01 -3.816E+01 8.302E+01
491405600 -3.763E+01 8.301E+01 -1.316E-02 -7.480E-01 -1.316E-02 -7.480E-01 -3.763E+01 8.301E+01
522330338 -3.710E+01 8.299E+01 -1.398E-02 -7.951E-01 -1.398E-02 -7.951E-01 -3.710E+01 8.299E+01
555201207 -3.657E+01 8.296E+01 -1.485E-02 -8.452E-01 -1.485E-02 -8.452E-01 -3.657E+01 8.296E+01
590140678 -3.604E+01 8.294E+01 -1.580E-02 -8.984E-01 -1.580E-02 -8.984E-01 -3.604E+01 8.294E+01
627278932 -3.551E+01 8.290E+01 -1.680E-02 -9.549E-01 -1.680E-02 -9.549E-01 -3.551E+01 8.290E+01
666754340 -3.498E+01 8.286E+01 -1.788E-02 -1.015E+00 -1.788E-02 -1.015E+00 -3.498E+01 8.286E+01
708713982 -3.445E+01 8.282E+01 -1.904E-02 -1.079E+00 -1.904E-02 -1.079E+00 -3.445E+01 8.282E+01
753314195 -3.393E+01 8.277E+01 -2.029E-02 -1.147E+00 -2.029E-02 -1.147E+00 -3.393E+01 8.277E+01
800721152 -3.340E+01 8.272E+01 -2.162E-02 -1.219E+00 -2.162E-02 -1.219E+00 -3.340E+01 8.272E+01
851111485 -3.287E+01 8.266E+01 -2.305E-02 -1.295E+00 -2.305E-02 -1.295E+00 -3.287E+01 8.266E+01
904672942 -3.234E+01 8.259E+01 -2.459E-02 -1.377E+00 -2.459E-02 -1.377E+00 -3.234E+01 8.259E+01
961605085 -3.181E+01 8.252E+01 -2.625E-02 -1.463E+00 -2.625E-02 -1.463E+00 -3.181E+01 8.252E+01
1022120035 -3.128E+01 8.244E+01 -2.803E-02 -1.555E+00 -2.803E-02 -1.555E+00 -3.128E+01 8.244E+01
1086443262 -3.075E+01 8.236E+01 -2.995E-02 -1.652E+00 -2.995E-02 -1.652E+00 -3.075E+01 8.236E+01
1154814427 -3.023E+01 8.227E+01 -3.202E-02 -1.756E+00 -3.202E-02 -1.756E+00 -3.023E+01 8.227E+01
1227488271 -2.970E+01 8.217E+01 -3.424E-02 -1.866E+00 -3.424E-02 -1.866E+00 -2.970E+01 8.217E+01
1304735566 -2.917E+01 8.206E+01 -3.664E-02 -1.983E+00 -3.664E-02 -1.983E+00 -2.917E+01 8.206E+01
1386844124 -2.864E+01 8.195E+01 -3.923E-02 -2.107E+00 -3.923E-02 -2.107E+00 -2.864E+01 8.195E+01
1474119872 -2.812E+01 8.182E+01 -4.203E-02 -2.239E+00 -4.203E-02 -2.239E+00 -2.812E+01 8.182E+01
1566887987 -2.759E+01 8.169E+01 -4.506E-02 -2.380E+00 -4.506E-02 -2.380E+00 -2.759E+01 8.169E+01
1665494109 -2.706E+01 8.155E+01 -4.833E-02 -2.529E+00 -4.833E-02 -2.529E+00 -2.706E+01 8.155E+01
1770305631 -2.653E+01 8.140E+01 -5.186E-02 -2.687E+00 -5.186E-02 -2.687E+00 -2.653E+01 8.140E+01
1881713067 -2.601E+01 8.124E+01 -5.570E-02 -2.855E+00 -5.570E-02 -2.855E+00 -2.601E+01 8.124E+01
2000131505 -2.548E+01 8.107E+01 -5.985E-02 -3.033E+00 -5.985E-02 -3.033E+00 -2.548E+01 8.107E+01
2126002157 -2.496E+01 8.089E+01 -6.435E-02 -3.223E+00 -6.435E-02 -3.223E+00 -2.496E+01 8.089E+01
2259793998 -2.443E+01 8.069E+01 -6.924E-02 -3.424E+00 -6.924E-02 -3.424E+00 -2.443E+01 8.069E+01
2402005518 -2.391E+01 8.048E+01 -7.455E-02 -3.637E+00 -7.455E-02 -3.637E+00 -2.391E+01 8.048E+01
2553166578 -2.338E+01 8.026E+01 -8.033E-02 -3.864E+00 -8.033E-02 -3.864E+00 -2.338E+01 8.026E+01
2713840383 -2.286E+01 8.003E+01 -8.661E-02 -4.105E+00 -8.661E-02 -4.105E+00 -2.286E+01 8.003E+01
2884625582 -2.234E+01 7.978E+01 -9.345E-02 -4.360E+00 -9.345E-02 -4.360E+00 -2.234E+01 7.978E+01
3066158496 -2.181E+01 7.951E+01 -1.009E-01 -4.631E+00 -1.009E-01 -4.631E+00 -2.181E+01 7.951E+01
3259115492 -2.129E+01 7.923E+01 -1.090E-01 -4.919E+00 -1.090E-01 -4.919E+00 -2.129E+01 7.923E+01
3464215500 -2.077E+01 7.893E+01 -1.179E-01 -5.224E+00 -1.179E-01 -5.224E+00 -2.077E+01 7.893E+01
3682222696 -2.025E+01 7.861E+01 -1.276E-01 -5.547E+00 -1.276E-01 -5.547E+00 -2.025E+01 7.861E+01
3913949344 -1.973E+01 7.827E+01 -1.382E-01 -5.890E+00 -1.382E-01 -5.890E+00 -1.973E+01 7.827E+01
4160258825 -1.921E+01 7.791E+01 -1.498E-01 -6.254E+00 -1.498E-01 -6.254E+00 -1.921E+01 7.791E+01
4422068854 -1.869E+01 7.752E+01 -1.624E-01 -6.640E+00 -1.624E-01 -6.640E+00 -1.869E+01 7.752E+01
4700354899 -1.818E+01 7.712E+01 -1.763E-01 -7.048E+00 -1.763E-01 -7.048E+00 -1.818E+01 7.712E+01
4996153816 -1.766E+01 7.669E+01 -1.915E-01 -7.481E+00 -1.915E-01 -7.481E+00 -1.766E+01 7.669E+01
5310567709 -1.715E+01 7.623E+01 -2.082E-01 -7.939E+00 -2.082E-01 -7.939E+00 -1.715E+01 7.623E+01
5644768043 -1.664E+01 7.575E+01 -2.265E-01 -8.425E+00 -2.265E-01 -8.425E+00 -1.664E+01 7.575E+01
6000000000 -1.613E+01 7.524E+01 -2.466E-01 -8.938E+00 -2.466E-01 -8.938E+00 -1.613E+01 7.524E+01
