!Murata Part Number:GRM155R61A474KE15
!These Parameters are Measured in Series Mode Connection
!       o--ll--o
!Port1            Port2
!       o------o
!Operation Temp=25[C], DC Bias Voltage=0[V]
!Freq. Start=30[kHz] Stop=6[GHz], 201[Steps]
# Hz S DB R 50
!Freq.[Hz] MagS11[dB] PhaseS11[DEG] MagS21[dB] PhaseS21[DEG] MagS12[dB] PhaseS12[DEG] MagS22[dB] PhaseS22[DEG]
30000 -1.670E+01 -7.902E+01 -1.517E-01 8.397E+00 -1.517E-01 8.397E+00 -1.670E+01 -7.902E+01
31888 -1.722E+01 -7.950E+01 -1.377E-01 7.910E+00 -1.377E-01 7.910E+00 -1.722E+01 -7.950E+01
33895 -1.774E+01 -7.996E+01 -1.251E-01 7.449E+00 -1.251E-01 7.449E+00 -1.774E+01 -7.996E+01
36028 -1.825E+01 -8.040E+01 -1.137E-01 7.015E+00 -1.137E-01 7.015E+00 -1.825E+01 -8.040E+01
38295 -1.877E+01 -8.081E+01 -1.035E-01 6.606E+00 -1.035E-01 6.606E+00 -1.877E+01 -8.081E+01
40705 -1.930E+01 -8.119E+01 -9.421E-02 6.220E+00 -9.421E-02 6.220E+00 -1.930E+01 -8.119E+01
43267 -1.982E+01 -8.155E+01 -8.586E-02 5.856E+00 -8.586E-02 5.856E+00 -1.982E+01 -8.155E+01
45989 -2.034E+01 -8.189E+01 -7.832E-02 5.513E+00 -7.832E-02 5.513E+00 -2.034E+01 -8.189E+01
48884 -2.086E+01 -8.222E+01 -7.150E-02 5.190E+00 -7.150E-02 5.190E+00 -2.086E+01 -8.222E+01
51960 -2.139E+01 -8.252E+01 -6.533E-02 4.885E+00 -6.533E-02 4.885E+00 -2.139E+01 -8.252E+01
55230 -2.191E+01 -8.280E+01 -5.975E-02 4.598E+00 -5.975E-02 4.598E+00 -2.191E+01 -8.280E+01
58705 -2.244E+01 -8.307E+01 -5.470E-02 4.328E+00 -5.470E-02 4.328E+00 -2.244E+01 -8.307E+01
62400 -2.296E+01 -8.332E+01 -5.012E-02 4.073E+00 -5.012E-02 4.073E+00 -2.296E+01 -8.332E+01
66327 -2.349E+01 -8.356E+01 -4.597E-02 3.834E+00 -4.597E-02 3.834E+00 -2.349E+01 -8.356E+01
70501 -2.401E+01 -8.379E+01 -4.220E-02 3.608E+00 -4.220E-02 3.608E+00 -2.401E+01 -8.379E+01
74937 -2.454E+01 -8.400E+01 -3.877E-02 3.395E+00 -3.877E-02 3.395E+00 -2.454E+01 -8.400E+01
79653 -2.507E+01 -8.419E+01 -3.565E-02 3.195E+00 -3.565E-02 3.195E+00 -2.507E+01 -8.419E+01
84666 -2.560E+01 -8.438E+01 -3.282E-02 3.007E+00 -3.282E-02 3.007E+00 -2.560E+01 -8.438E+01
89994 -2.612E+01 -8.455E+01 -3.024E-02 2.830E+00 -3.024E-02 2.830E+00 -2.612E+01 -8.455E+01
95658 -2.665E+01 -8.472E+01 -2.788E-02 2.663E+00 -2.788E-02 2.663E+00 -2.665E+01 -8.472E+01
101677 -2.718E+01 -8.487E+01 -2.573E-02 2.505E+00 -2.573E-02 2.505E+00 -2.718E+01 -8.487E+01
108076 -2.771E+01 -8.502E+01 -2.377E-02 2.358E+00 -2.377E-02 2.358E+00 -2.771E+01 -8.502E+01
114877 -2.823E+01 -8.515E+01 -2.198E-02 2.218E+00 -2.198E-02 2.218E+00 -2.823E+01 -8.515E+01
122107 -2.876E+01 -8.528E+01 -2.034E-02 2.087E+00 -2.034E-02 2.087E+00 -2.876E+01 -8.528E+01
129791 -2.929E+01 -8.540E+01 -1.884E-02 1.964E+00 -1.884E-02 1.964E+00 -2.929E+01 -8.540E+01
137959 -2.982E+01 -8.551E+01 -1.746E-02 1.848E+00 -1.746E-02 1.848E+00 -2.982E+01 -8.551E+01
146641 -3.035E+01 -8.561E+01 -1.620E-02 1.739E+00 -1.620E-02 1.739E+00 -3.035E+01 -8.561E+01
155869 -3.088E+01 -8.571E+01 -1.504E-02 1.636E+00 -1.504E-02 1.636E+00 -3.088E+01 -8.571E+01
165678 -3.141E+01 -8.580E+01 -1.397E-02 1.539E+00 -1.397E-02 1.539E+00 -3.141E+01 -8.580E+01
176105 -3.194E+01 -8.589E+01 -1.300E-02 1.448E+00 -1.300E-02 1.448E+00 -3.194E+01 -8.589E+01
187187 -3.247E+01 -8.597E+01 -1.209E-02 1.363E+00 -1.209E-02 1.363E+00 -3.247E+01 -8.597E+01
198967 -3.300E+01 -8.604E+01 -1.126E-02 1.282E+00 -1.126E-02 1.282E+00 -3.300E+01 -8.604E+01
211488 -3.353E+01 -8.611E+01 -1.050E-02 1.206E+00 -1.050E-02 1.206E+00 -3.353E+01 -8.611E+01
224797 -3.406E+01 -8.618E+01 -9.791E-03 1.135E+00 -9.791E-03 1.135E+00 -3.406E+01 -8.618E+01
238944 -3.459E+01 -8.623E+01 -9.139E-03 1.068E+00 -9.139E-03 1.068E+00 -3.459E+01 -8.623E+01
253981 -3.512E+01 -8.629E+01 -8.536E-03 1.004E+00 -8.536E-03 1.004E+00 -3.512E+01 -8.629E+01
269964 -3.564E+01 -8.634E+01 -7.979E-03 9.449E-01 -7.979E-03 9.449E-01 -3.564E+01 -8.634E+01
286954 -3.618E+01 -8.639E+01 -7.463E-03 8.890E-01 -7.463E-03 8.890E-01 -3.618E+01 -8.639E+01
305012 -3.671E+01 -8.643E+01 -6.985E-03 8.363E-01 -6.985E-03 8.363E-01 -3.671E+01 -8.643E+01
324207 -3.724E+01 -8.647E+01 -6.542E-03 7.868E-01 -6.542E-03 7.868E-01 -3.724E+01 -8.647E+01
344610 -3.777E+01 -8.650E+01 -6.132E-03 7.402E-01 -6.132E-03 7.402E-01 -3.777E+01 -8.650E+01
366296 -3.830E+01 -8.653E+01 -5.751E-03 6.963E-01 -5.751E-03 6.963E-01 -3.830E+01 -8.653E+01
389348 -3.883E+01 -8.656E+01 -5.397E-03 6.551E-01 -5.397E-03 6.551E-01 -3.883E+01 -8.656E+01
413850 -3.936E+01 -8.659E+01 -5.069E-03 6.162E-01 -5.069E-03 6.162E-01 -3.936E+01 -8.659E+01
439894 -3.989E+01 -8.661E+01 -4.763E-03 5.797E-01 -4.763E-03 5.797E-01 -3.989E+01 -8.661E+01
467577 -4.042E+01 -8.663E+01 -4.479E-03 5.453E-01 -4.479E-03 5.453E-01 -4.042E+01 -8.663E+01
497002 -4.095E+01 -8.664E+01 -4.215E-03 5.129E-01 -4.215E-03 5.129E-01 -4.095E+01 -8.664E+01
528279 -4.148E+01 -8.665E+01 -3.969E-03 4.825E-01 -3.969E-03 4.825E-01 -4.148E+01 -8.665E+01
561524 -4.201E+01 -8.666E+01 -3.740E-03 4.538E-01 -3.740E-03 4.538E-01 -4.201E+01 -8.666E+01
596862 -4.255E+01 -8.667E+01 -3.527E-03 4.269E-01 -3.527E-03 4.269E-01 -4.255E+01 -8.667E+01
634423 -4.308E+01 -8.667E+01 -3.328E-03 4.015E-01 -3.328E-03 4.015E-01 -4.308E+01 -8.667E+01
674348 -4.361E+01 -8.667E+01 -3.143E-03 3.776E-01 -3.143E-03 3.776E-01 -4.361E+01 -8.667E+01
716785 -4.414E+01 -8.666E+01 -2.970E-03 3.551E-01 -2.970E-03 3.551E-01 -4.414E+01 -8.666E+01
761893 -4.468E+01 -8.666E+01 -2.809E-03 3.340E-01 -2.809E-03 3.340E-01 -4.468E+01 -8.666E+01
809840 -4.521E+01 -8.665E+01 -2.658E-03 3.140E-01 -2.658E-03 3.140E-01 -4.521E+01 -8.665E+01
860804 -4.574E+01 -8.663E+01 -2.518E-03 2.953E-01 -2.518E-03 2.953E-01 -4.574E+01 -8.663E+01
914976 -4.628E+01 -8.662E+01 -2.387E-03 2.777E-01 -2.387E-03 2.777E-01 -4.628E+01 -8.662E+01
972556 -4.681E+01 -8.659E+01 -2.265E-03 2.610E-01 -2.265E-03 2.610E-01 -4.681E+01 -8.659E+01
1033761 -4.735E+01 -8.657E+01 -2.151E-03 2.454E-01 -2.151E-03 2.454E-01 -4.735E+01 -8.657E+01
1098816 -4.789E+01 -8.654E+01 -2.044E-03 2.307E-01 -2.044E-03 2.307E-01 -4.789E+01 -8.654E+01
1167966 -4.843E+01 -8.651E+01 -1.945E-03 2.168E-01 -1.945E-03 2.168E-01 -4.843E+01 -8.651E+01
1241468 -4.897E+01 -8.647E+01 -1.852E-03 2.038E-01 -1.852E-03 2.038E-01 -4.897E+01 -8.647E+01
1319595 -4.951E+01 -8.642E+01 -1.765E-03 1.915E-01 -1.765E-03 1.915E-01 -4.951E+01 -8.642E+01
1402638 -5.005E+01 -8.638E+01 -1.684E-03 1.799E-01 -1.684E-03 1.799E-01 -5.005E+01 -8.638E+01
1490908 -5.059E+01 -8.632E+01 -1.609E-03 1.690E-01 -1.609E-03 1.690E-01 -5.059E+01 -8.632E+01
1584733 -5.114E+01 -8.626E+01 -1.539E-03 1.587E-01 -1.539E-03 1.587E-01 -5.114E+01 -8.626E+01
1684462 -5.168E+01 -8.619E+01 -1.473E-03 1.490E-01 -1.473E-03 1.490E-01 -5.168E+01 -8.619E+01
1790467 -5.223E+01 -8.612E+01 -1.412E-03 1.398E-01 -1.412E-03 1.398E-01 -5.223E+01 -8.612E+01
1903143 -5.278E+01 -8.604E+01 -1.355E-03 1.312E-01 -1.355E-03 1.312E-01 -5.278E+01 -8.604E+01
2022910 -5.334E+01 -8.594E+01 -1.303E-03 1.231E-01 -1.303E-03 1.231E-01 -5.334E+01 -8.594E+01
2150214 -5.390E+01 -8.584E+01 -1.254E-03 1.154E-01 -1.254E-03 1.154E-01 -5.390E+01 -8.584E+01
2285530 -5.446E+01 -8.573E+01 -1.208E-03 1.082E-01 -1.208E-03 1.082E-01 -5.446E+01 -8.573E+01
2429361 -5.502E+01 -8.561E+01 -1.166E-03 1.013E-01 -1.166E-03 1.013E-01 -5.502E+01 -8.561E+01
2582244 -5.560E+01 -8.547E+01 -1.127E-03 9.485E-02 -1.127E-03 9.485E-02 -5.560E+01 -8.547E+01
2744747 -5.617E+01 -8.532E+01 -1.091E-03 8.874E-02 -1.091E-03 8.874E-02 -5.617E+01 -8.532E+01
2917477 -5.676E+01 -8.515E+01 -1.058E-03 8.295E-02 -1.058E-03 8.295E-02 -5.676E+01 -8.515E+01
3101078 -5.735E+01 -8.496E+01 -1.028E-03 7.748E-02 -1.028E-03 7.748E-02 -5.735E+01 -8.496E+01
3296232 -5.794E+01 -8.475E+01 -1.001E-03 7.230E-02 -1.001E-03 7.230E-02 -5.794E+01 -8.475E+01
3503668 -5.855E+01 -8.451E+01 -9.754E-04 6.739E-02 -9.754E-04 6.739E-02 -5.855E+01 -8.451E+01
3724158 -5.917E+01 -8.425E+01 -9.526E-04 6.272E-02 -9.526E-04 6.272E-02 -5.917E+01 -8.425E+01
3958524 -5.980E+01 -8.395E+01 -9.321E-04 5.829E-02 -9.321E-04 5.829E-02 -5.980E+01 -8.395E+01
4207638 -6.045E+01 -8.361E+01 -9.139E-04 5.408E-02 -9.139E-04 5.408E-02 -6.045E+01 -8.361E+01
4472430 -6.111E+01 -8.323E+01 -8.978E-04 5.007E-02 -8.978E-04 5.007E-02 -6.111E+01 -8.323E+01
4753885 -6.179E+01 -8.279E+01 -8.837E-04 4.625E-02 -8.837E-04 4.625E-02 -6.179E+01 -8.279E+01
5053053 -6.250E+01 -8.229E+01 -8.717E-04 4.260E-02 -8.717E-04 4.260E-02 -6.250E+01 -8.229E+01
5371048 -6.323E+01 -8.171E+01 -8.616E-04 3.910E-02 -8.616E-04 3.910E-02 -6.323E+01 -8.171E+01
5709054 -6.399E+01 -8.103E+01 -8.535E-04 3.576E-02 -8.535E-04 3.576E-02 -6.399E+01 -8.103E+01
6068332 -6.479E+01 -8.024E+01 -8.472E-04 3.254E-02 -8.472E-04 3.254E-02 -6.479E+01 -8.024E+01
6450219 -6.563E+01 -7.930E+01 -8.428E-04 2.945E-02 -8.428E-04 2.945E-02 -6.563E+01 -7.930E+01
6856139 -6.652E+01 -7.816E+01 -8.403E-04 2.647E-02 -8.403E-04 2.647E-02 -6.652E+01 -7.816E+01
7287604 -6.748E+01 -7.677E+01 -8.395E-04 2.358E-02 -8.395E-04 2.358E-02 -6.748E+01 -7.677E+01
7746221 -6.851E+01 -7.505E+01 -8.406E-04 2.079E-02 -8.406E-04 2.079E-02 -6.851E+01 -7.505E+01
8233700 -6.963E+01 -7.287E+01 -8.436E-04 1.807E-02 -8.436E-04 1.807E-02 -6.963E+01 -7.287E+01
8751857 -7.087E+01 -7.004E+01 -8.483E-04 1.542E-02 -8.483E-04 1.542E-02 -7.087E+01 -7.004E+01
9302622 -7.224E+01 -6.625E+01 -8.549E-04 1.282E-02 -8.549E-04 1.282E-02 -7.224E+01 -6.625E+01
9888047 -7.376E+01 -6.100E+01 -8.634E-04 1.028E-02 -8.634E-04 1.028E-02 -7.376E+01 -6.100E+01
10510313 -7.545E+01 -5.342E+01 -8.738E-04 7.768E-03 -8.738E-04 7.768E-03 -7.545E+01 -5.342E+01
11171740 -7.723E+01 -4.213E+01 -8.862E-04 5.289E-03 -8.862E-04 5.289E-03 -7.723E+01 -4.213E+01
11874790 -7.880E+01 -2.547E+01 -9.005E-04 2.829E-03 -9.005E-04 2.829E-03 -7.880E+01 -2.547E+01
12622085 -7.951E+01 -3.598E+00 -9.169E-04 3.803E-04 -9.169E-04 3.803E-04 -7.951E+01 -3.598E+00
13416408 -7.889E+01 1.852E+01 -9.354E-04 -2.067E-03 -9.354E-04 -2.067E-03 -7.889E+01 1.852E+01
14260718 -7.737E+01 3.564E+01 -9.560E-04 -4.522E-03 -9.560E-04 -4.522E-03 -7.737E+01 3.564E+01
15158162 -7.559E+01 4.728E+01 -9.790E-04 -6.995E-03 -9.790E-04 -6.995E-03 -7.559E+01 4.728E+01
16112083 -7.389E+01 5.509E+01 -1.004E-03 -9.493E-03 -1.004E-03 -9.493E-03 -7.389E+01 5.509E+01
17126036 -7.235E+01 6.048E+01 -1.032E-03 -1.203E-02 -1.032E-03 -1.203E-02 -7.235E+01 6.048E+01
18203798 -7.097E+01 6.436E+01 -1.062E-03 -1.460E-02 -1.062E-03 -1.460E-02 -7.097E+01 6.436E+01
19349384 -6.973E+01 6.726E+01 -1.095E-03 -1.724E-02 -1.095E-03 -1.724E-02 -6.973E+01 6.726E+01
20567064 -6.860E+01 6.948E+01 -1.131E-03 -1.993E-02 -1.131E-03 -1.993E-02 -6.860E+01 6.948E+01
21861374 -6.757E+01 7.123E+01 -1.169E-03 -2.270E-02 -1.169E-03 -2.270E-02 -6.757E+01 7.123E+01
23237136 -6.661E+01 7.264E+01 -1.211E-03 -2.556E-02 -1.211E-03 -2.556E-02 -6.661E+01 7.264E+01
24699477 -6.571E+01 7.379E+01 -1.256E-03 -2.851E-02 -1.256E-03 -2.851E-02 -6.571E+01 7.379E+01
26253844 -6.487E+01 7.475E+01 -1.304E-03 -3.157E-02 -1.304E-03 -3.157E-02 -6.487E+01 7.475E+01
27906030 -6.407E+01 7.555E+01 -1.355E-03 -3.474E-02 -1.355E-03 -3.474E-02 -6.407E+01 7.555E+01
29662189 -6.330E+01 7.623E+01 -1.411E-03 -3.805E-02 -1.411E-03 -3.805E-02 -6.330E+01 7.623E+01
31528866 -6.257E+01 7.682E+01 -1.470E-03 -4.149E-02 -1.470E-03 -4.149E-02 -6.257E+01 7.682E+01
33513015 -6.187E+01 7.733E+01 -1.534E-03 -4.509E-02 -1.534E-03 -4.509E-02 -6.187E+01 7.733E+01
35622029 -6.119E+01 7.777E+01 -1.602E-03 -4.886E-02 -1.602E-03 -4.886E-02 -6.119E+01 7.777E+01
37863766 -6.052E+01 7.816E+01 -1.675E-03 -5.281E-02 -1.675E-03 -5.281E-02 -6.052E+01 7.816E+01
40246577 -5.988E+01 7.850E+01 -1.753E-03 -5.696E-02 -1.753E-03 -5.696E-02 -5.988E+01 7.850E+01
42779342 -5.925E+01 7.880E+01 -1.836E-03 -6.132E-02 -1.836E-03 -6.132E-02 -5.925E+01 7.880E+01
45471497 -5.863E+01 7.906E+01 -1.924E-03 -6.590E-02 -1.924E-03 -6.590E-02 -5.863E+01 7.906E+01
48333072 -5.802E+01 7.930E+01 -2.019E-03 -7.074E-02 -2.019E-03 -7.074E-02 -5.802E+01 7.930E+01
51374730 -5.742E+01 7.951E+01 -2.120E-03 -7.583E-02 -2.120E-03 -7.583E-02 -5.742E+01 7.951E+01
54607803 -5.683E+01 7.970E+01 -2.227E-03 -8.121E-02 -2.227E-03 -8.121E-02 -5.683E+01 7.970E+01
58044337 -5.625E+01 7.988E+01 -2.342E-03 -8.689E-02 -2.342E-03 -8.689E-02 -5.625E+01 7.988E+01
61697136 -5.567E+01 8.003E+01 -2.464E-03 -9.290E-02 -2.464E-03 -9.290E-02 -5.567E+01 8.003E+01
65579810 -5.510E+01 8.017E+01 -2.594E-03 -9.925E-02 -2.594E-03 -9.925E-02 -5.510E+01 8.017E+01
69706825 -5.454E+01 8.029E+01 -2.733E-03 -1.060E-01 -2.733E-03 -1.060E-01 -5.454E+01 8.029E+01
74093558 -5.398E+01 8.041E+01 -2.880E-03 -1.131E-01 -2.880E-03 -1.131E-01 -5.398E+01 8.041E+01
78756354 -5.342E+01 8.051E+01 -3.037E-03 -1.206E-01 -3.037E-03 -1.206E-01 -5.342E+01 8.051E+01
83712585 -5.286E+01 8.060E+01 -3.205E-03 -1.286E-01 -3.205E-03 -1.286E-01 -5.286E+01 8.060E+01
88980717 -5.231E+01 8.068E+01 -3.383E-03 -1.371E-01 -3.383E-03 -1.371E-01 -5.231E+01 8.068E+01
94580379 -5.176E+01 8.076E+01 -3.573E-03 -1.460E-01 -3.573E-03 -1.460E-01 -5.176E+01 8.076E+01
100532435 -5.122E+01 8.083E+01 -3.775E-03 -1.555E-01 -3.775E-03 -1.555E-01 -5.122E+01 8.083E+01
106859061 -5.067E+01 8.089E+01 -3.990E-03 -1.656E-01 -3.990E-03 -1.656E-01 -5.067E+01 8.089E+01
113583828 -5.013E+01 8.094E+01 -4.220E-03 -1.764E-01 -4.220E-03 -1.764E-01 -5.013E+01 8.094E+01
120731793 -4.959E+01 8.099E+01 -4.464E-03 -1.877E-01 -4.464E-03 -1.877E-01 -4.959E+01 8.099E+01
128329589 -4.905E+01 8.104E+01 -4.724E-03 -1.998E-01 -4.724E-03 -1.998E-01 -4.905E+01 8.104E+01
136405522 -4.851E+01 8.107E+01 -5.001E-03 -2.126E-01 -5.001E-03 -2.126E-01 -4.851E+01 8.107E+01
144989683 -4.797E+01 8.111E+01 -5.295E-03 -2.262E-01 -5.295E-03 -2.262E-01 -4.797E+01 8.111E+01
154114056 -4.744E+01 8.114E+01 -5.609E-03 -2.406E-01 -5.609E-03 -2.406E-01 -4.744E+01 8.114E+01
163812637 -4.690E+01 8.116E+01 -5.944E-03 -2.560E-01 -5.944E-03 -2.560E-01 -4.690E+01 8.116E+01
174121561 -4.637E+01 8.119E+01 -6.300E-03 -2.723E-01 -6.300E-03 -2.723E-01 -4.637E+01 8.119E+01
185079238 -4.583E+01 8.120E+01 -6.679E-03 -2.896E-01 -6.679E-03 -2.896E-01 -4.583E+01 8.120E+01
196726494 -4.530E+01 8.122E+01 -7.083E-03 -3.079E-01 -7.083E-03 -3.079E-01 -4.530E+01 8.122E+01
209106726 -4.476E+01 8.123E+01 -7.514E-03 -3.275E-01 -7.514E-03 -3.275E-01 -4.476E+01 8.123E+01
222266060 -4.423E+01 8.124E+01 -7.973E-03 -3.482E-01 -7.973E-03 -3.482E-01 -4.423E+01 8.124E+01
236253527 -4.370E+01 8.124E+01 -8.462E-03 -3.702E-01 -8.462E-03 -3.702E-01 -4.370E+01 8.124E+01
251121243 -4.317E+01 8.124E+01 -8.983E-03 -3.936E-01 -8.983E-03 -3.936E-01 -4.317E+01 8.124E+01
266924601 -4.264E+01 8.124E+01 -9.539E-03 -4.185E-01 -9.539E-03 -4.185E-01 -4.264E+01 8.124E+01
283722483 -4.210E+01 8.124E+01 -1.013E-02 -4.449E-01 -1.013E-02 -4.449E-01 -4.210E+01 8.124E+01
301577476 -4.157E+01 8.123E+01 -1.076E-02 -4.730E-01 -1.076E-02 -4.730E-01 -4.157E+01 8.123E+01
320556104 -4.104E+01 8.122E+01 -1.144E-02 -5.028E-01 -1.144E-02 -5.028E-01 -4.104E+01 8.122E+01
340729081 -4.051E+01 8.120E+01 -1.216E-02 -5.345E-01 -1.216E-02 -5.345E-01 -4.051E+01 8.120E+01
362171566 -3.998E+01 8.118E+01 -1.292E-02 -5.682E-01 -1.292E-02 -5.682E-01 -3.998E+01 8.118E+01
384963453 -3.945E+01 8.116E+01 -1.374E-02 -6.040E-01 -1.374E-02 -6.040E-01 -3.945E+01 8.116E+01
409189661 -3.892E+01 8.114E+01 -1.461E-02 -6.420E-01 -1.461E-02 -6.420E-01 -3.892E+01 8.114E+01
434940452 -3.839E+01 8.111E+01 -1.555E-02 -6.825E-01 -1.555E-02 -6.825E-01 -3.839E+01 8.111E+01
462311771 -3.786E+01 8.108E+01 -1.654E-02 -7.254E-01 -1.654E-02 -7.254E-01 -3.786E+01 8.108E+01
491405600 -3.733E+01 8.105E+01 -1.761E-02 -7.710E-01 -1.761E-02 -7.710E-01 -3.733E+01 8.105E+01
522330338 -3.680E+01 8.101E+01 -1.874E-02 -8.195E-01 -1.874E-02 -8.195E-01 -3.680E+01 8.101E+01
555201207 -3.627E+01 8.097E+01 -1.996E-02 -8.710E-01 -1.996E-02 -8.710E-01 -3.627E+01 8.097E+01
590140678 -3.574E+01 8.092E+01 -2.126E-02 -9.257E-01 -2.126E-02 -9.257E-01 -3.574E+01 8.092E+01
627278932 -3.522E+01 8.088E+01 -2.264E-02 -9.839E-01 -2.264E-02 -9.839E-01 -3.522E+01 8.088E+01
666754340 -3.469E+01 8.082E+01 -2.413E-02 -1.046E+00 -2.413E-02 -1.046E+00 -3.469E+01 8.082E+01
708713982 -3.416E+01 8.076E+01 -2.572E-02 -1.111E+00 -2.572E-02 -1.111E+00 -3.416E+01 8.076E+01
753314195 -3.363E+01 8.070E+01 -2.742E-02 -1.181E+00 -2.742E-02 -1.181E+00 -3.363E+01 8.070E+01
800721152 -3.310E+01 8.064E+01 -2.925E-02 -1.255E+00 -2.925E-02 -1.255E+00 -3.310E+01 8.064E+01
851111485 -3.257E+01 8.056E+01 -3.120E-02 -1.334E+00 -3.120E-02 -1.334E+00 -3.257E+01 8.056E+01
904672942 -3.204E+01 8.049E+01 -3.329E-02 -1.418E+00 -3.329E-02 -1.418E+00 -3.204E+01 8.049E+01
961605085 -3.152E+01 8.040E+01 -3.554E-02 -1.507E+00 -3.554E-02 -1.507E+00 -3.152E+01 8.040E+01
1022120035 -3.099E+01 8.031E+01 -3.795E-02 -1.601E+00 -3.795E-02 -1.601E+00 -3.099E+01 8.031E+01
1086443262 -3.046E+01 8.022E+01 -4.054E-02 -1.701E+00 -4.054E-02 -1.701E+00 -3.046E+01 8.022E+01
1154814427 -2.993E+01 8.012E+01 -4.331E-02 -1.808E+00 -4.331E-02 -1.808E+00 -2.993E+01 8.012E+01
1227488271 -2.941E+01 8.001E+01 -4.630E-02 -1.921E+00 -4.630E-02 -1.921E+00 -2.941E+01 8.001E+01
1304735566 -2.888E+01 7.989E+01 -4.950E-02 -2.041E+00 -4.950E-02 -2.041E+00 -2.888E+01 7.989E+01
1386844124 -2.835E+01 7.977E+01 -5.295E-02 -2.169E+00 -5.295E-02 -2.169E+00 -2.835E+01 7.977E+01
1474119872 -2.783E+01 7.964E+01 -5.667E-02 -2.304E+00 -5.667E-02 -2.304E+00 -2.783E+01 7.964E+01
1566887987 -2.730E+01 7.950E+01 -6.066E-02 -2.448E+00 -6.066E-02 -2.448E+00 -2.730E+01 7.950E+01
1665494109 -2.678E+01 7.935E+01 -6.497E-02 -2.601E+00 -6.497E-02 -2.601E+00 -2.678E+01 7.935E+01
1770305631 -2.625E+01 7.919E+01 -6.962E-02 -2.764E+00 -6.962E-02 -2.764E+00 -2.625E+01 7.919E+01
1881713067 -2.572E+01 7.902E+01 -7.463E-02 -2.936E+00 -7.463E-02 -2.936E+00 -2.572E+01 7.902E+01
2000131505 -2.520E+01 7.884E+01 -8.003E-02 -3.119E+00 -8.003E-02 -3.119E+00 -2.520E+01 7.884E+01
2126002157 -2.468E+01 7.864E+01 -8.588E-02 -3.313E+00 -8.588E-02 -3.313E+00 -2.468E+01 7.864E+01
2259793998 -2.415E+01 7.844E+01 -9.219E-02 -3.520E+00 -9.219E-02 -3.520E+00 -2.415E+01 7.844E+01
2402005518 -2.363E+01 7.822E+01 -9.902E-02 -3.739E+00 -9.902E-02 -3.739E+00 -2.363E+01 7.822E+01
2553166578 -2.311E+01 7.799E+01 -1.064E-01 -3.971E+00 -1.064E-01 -3.971E+00 -2.311E+01 7.799E+01
2713840383 -2.258E+01 7.775E+01 -1.144E-01 -4.217E+00 -1.144E-01 -4.217E+00 -2.258E+01 7.775E+01
2884625582 -2.206E+01 7.749E+01 -1.231E-01 -4.479E+00 -1.231E-01 -4.479E+00 -2.206E+01 7.749E+01
3066158496 -2.154E+01 7.721E+01 -1.325E-01 -4.756E+00 -1.325E-01 -4.756E+00 -2.154E+01 7.721E+01
3259115492 -2.102E+01 7.692E+01 -1.427E-01 -5.050E+00 -1.427E-01 -5.050E+00 -2.102E+01 7.692E+01
3464215500 -2.050E+01 7.661E+01 -1.538E-01 -5.362E+00 -1.538E-01 -5.362E+00 -2.050E+01 7.661E+01
3682222696 -1.999E+01 7.628E+01 -1.659E-01 -5.693E+00 -1.659E-01 -5.693E+00 -1.999E+01 7.628E+01
3913949344 -1.947E+01 7.593E+01 -1.790E-01 -6.043E+00 -1.790E-01 -6.043E+00 -1.947E+01 7.593E+01
4160258825 -1.895E+01 7.556E+01 -1.933E-01 -6.414E+00 -1.933E-01 -6.414E+00 -1.895E+01 7.556E+01
4422068854 -1.844E+01 7.517E+01 -2.088E-01 -6.807E+00 -2.088E-01 -6.807E+00 -1.844E+01 7.517E+01
4700354899 -1.792E+01 7.476E+01 -2.258E-01 -7.224E+00 -2.258E-01 -7.224E+00 -1.792E+01 7.476E+01
4996153816 -1.741E+01 7.432E+01 -2.442E-01 -7.665E+00 -2.442E-01 -7.665E+00 -1.741E+01 7.432E+01
5310567709 -1.690E+01 7.385E+01 -2.644E-01 -8.131E+00 -2.644E-01 -8.131E+00 -1.690E+01 7.385E+01
5644768043 -1.639E+01 7.336E+01 -2.864E-01 -8.625E+00 -2.864E-01 -8.625E+00 -1.639E+01 7.336E+01
6000000000 -1.589E+01 7.284E+01 -3.104E-01 -9.147E+00 -3.104E-01 -9.147E+00 -1.589E+01 7.284E+01
