!Murata Part Number:GRM188R60J106ME47
!These Parameters are Measured in Series Mode Connection
!       o--ll--o
!Port1            Port2
!       o------o
!Operation Temp=25[C], DC Bias Voltage=0[V]
!Freq. Start=30[kHz] Stop=6[GHz], 201[Steps]
# Hz S DB R 50
!Freq.[Hz] MagS11[dB] PhaseS11[DEG] MagS21[dB] PhaseS21[DEG] MagS12[dB] PhaseS12[DEG] MagS22[dB] PhaseS22[DEG]
30000 -3.946E+01 -8.611E+01 -5.788E-03 6.086E-01 -5.788E-03 6.086E-01 -3.946E+01 -8.611E+01
31888 -3.999E+01 -8.613E+01 -5.433E-03 5.726E-01 -5.433E-03 5.726E-01 -3.999E+01 -8.613E+01
33895 -4.052E+01 -8.616E+01 -5.103E-03 5.387E-01 -5.103E-03 5.387E-01 -4.052E+01 -8.616E+01
36028 -4.105E+01 -8.618E+01 -4.795E-03 5.068E-01 -4.795E-03 5.068E-01 -4.105E+01 -8.618E+01
38295 -4.158E+01 -8.619E+01 -4.508E-03 4.768E-01 -4.508E-03 4.768E-01 -4.158E+01 -8.619E+01
40705 -4.211E+01 -8.621E+01 -4.240E-03 4.486E-01 -4.240E-03 4.486E-01 -4.211E+01 -8.621E+01
43267 -4.264E+01 -8.622E+01 -3.990E-03 4.220E-01 -3.990E-03 4.220E-01 -4.264E+01 -8.622E+01
45989 -4.317E+01 -8.623E+01 -3.756E-03 3.970E-01 -3.756E-03 3.970E-01 -4.317E+01 -8.623E+01
48884 -4.370E+01 -8.624E+01 -3.538E-03 3.735E-01 -3.538E-03 3.735E-01 -4.370E+01 -8.624E+01
51960 -4.423E+01 -8.624E+01 -3.333E-03 3.514E-01 -3.333E-03 3.514E-01 -4.423E+01 -8.624E+01
55230 -4.476E+01 -8.625E+01 -3.143E-03 3.306E-01 -3.143E-03 3.306E-01 -4.476E+01 -8.625E+01
58705 -4.529E+01 -8.625E+01 -2.964E-03 3.110E-01 -2.964E-03 3.110E-01 -4.529E+01 -8.625E+01
62400 -4.582E+01 -8.625E+01 -2.797E-03 2.926E-01 -2.797E-03 2.926E-01 -4.582E+01 -8.625E+01
66327 -4.635E+01 -8.624E+01 -2.641E-03 2.753E-01 -2.641E-03 2.753E-01 -4.635E+01 -8.624E+01
70501 -4.688E+01 -8.623E+01 -2.495E-03 2.590E-01 -2.495E-03 2.590E-01 -4.688E+01 -8.623E+01
74937 -4.741E+01 -8.623E+01 -2.358E-03 2.436E-01 -2.358E-03 2.436E-01 -4.741E+01 -8.623E+01
79653 -4.794E+01 -8.621E+01 -2.229E-03 2.292E-01 -2.229E-03 2.292E-01 -4.794E+01 -8.621E+01
84666 -4.847E+01 -8.620E+01 -2.109E-03 2.156E-01 -2.109E-03 2.156E-01 -4.847E+01 -8.620E+01
89994 -4.900E+01 -8.618E+01 -1.997E-03 2.028E-01 -1.997E-03 2.028E-01 -4.900E+01 -8.618E+01
95658 -4.953E+01 -8.616E+01 -1.891E-03 1.908E-01 -1.891E-03 1.908E-01 -4.953E+01 -8.616E+01
101677 -5.007E+01 -8.614E+01 -1.792E-03 1.795E-01 -1.792E-03 1.795E-01 -5.007E+01 -8.614E+01
108076 -5.060E+01 -8.612E+01 -1.699E-03 1.688E-01 -1.699E-03 1.688E-01 -5.060E+01 -8.612E+01
114877 -5.113E+01 -8.609E+01 -1.613E-03 1.588E-01 -1.613E-03 1.588E-01 -5.113E+01 -8.609E+01
122107 -5.166E+01 -8.606E+01 -1.531E-03 1.494E-01 -1.531E-03 1.494E-01 -5.166E+01 -8.606E+01
129791 -5.219E+01 -8.602E+01 -1.455E-03 1.405E-01 -1.455E-03 1.405E-01 -5.219E+01 -8.602E+01
137959 -5.272E+01 -8.599E+01 -1.383E-03 1.321E-01 -1.383E-03 1.321E-01 -5.272E+01 -8.599E+01
146641 -5.325E+01 -8.594E+01 -1.316E-03 1.243E-01 -1.316E-03 1.243E-01 -5.325E+01 -8.594E+01
155869 -5.379E+01 -8.590E+01 -1.252E-03 1.169E-01 -1.252E-03 1.169E-01 -5.379E+01 -8.590E+01
165678 -5.432E+01 -8.585E+01 -1.193E-03 1.099E-01 -1.193E-03 1.099E-01 -5.432E+01 -8.585E+01
176105 -5.485E+01 -8.580E+01 -1.138E-03 1.034E-01 -1.138E-03 1.034E-01 -5.485E+01 -8.580E+01
187187 -5.539E+01 -8.574E+01 -1.085E-03 9.721E-02 -1.085E-03 9.721E-02 -5.539E+01 -8.574E+01
198967 -5.592E+01 -8.568E+01 -1.037E-03 9.141E-02 -1.037E-03 9.141E-02 -5.592E+01 -8.568E+01
211488 -5.645E+01 -8.561E+01 -9.906E-04 8.595E-02 -9.906E-04 8.595E-02 -5.645E+01 -8.561E+01
224797 -5.699E+01 -8.554E+01 -9.476E-04 8.081E-02 -9.476E-04 8.081E-02 -5.699E+01 -8.554E+01
238944 -5.752E+01 -8.546E+01 -9.071E-04 7.596E-02 -9.071E-04 7.596E-02 -5.752E+01 -8.546E+01
253981 -5.806E+01 -8.537E+01 -8.692E-04 7.141E-02 -8.692E-04 7.141E-02 -5.806E+01 -8.537E+01
269964 -5.860E+01 -8.528E+01 -8.336E-04 6.711E-02 -8.336E-04 6.711E-02 -5.860E+01 -8.528E+01
286954 -5.914E+01 -8.518E+01 -8.002E-04 6.307E-02 -8.002E-04 6.307E-02 -5.914E+01 -8.518E+01
305012 -5.968E+01 -8.508E+01 -7.689E-04 5.927E-02 -7.689E-04 5.927E-02 -5.968E+01 -8.508E+01
324207 -6.022E+01 -8.496E+01 -7.396E-04 5.568E-02 -7.396E-04 5.568E-02 -6.022E+01 -8.496E+01
344610 -6.076E+01 -8.484E+01 -7.120E-04 5.230E-02 -7.120E-04 5.230E-02 -6.076E+01 -8.484E+01
366296 -6.130E+01 -8.471E+01 -6.862E-04 4.912E-02 -6.862E-04 4.912E-02 -6.130E+01 -8.471E+01
389348 -6.185E+01 -8.457E+01 -6.621E-04 4.612E-02 -6.621E-04 4.612E-02 -6.185E+01 -8.457E+01
413850 -6.239E+01 -8.441E+01 -6.394E-04 4.329E-02 -6.394E-04 4.329E-02 -6.239E+01 -8.441E+01
439894 -6.294E+01 -8.425E+01 -6.182E-04 4.062E-02 -6.182E-04 4.062E-02 -6.294E+01 -8.425E+01
467577 -6.350E+01 -8.407E+01 -5.983E-04 3.810E-02 -5.983E-04 3.810E-02 -6.350E+01 -8.407E+01
497002 -6.405E+01 -8.387E+01 -5.798E-04 3.573E-02 -5.798E-04 3.573E-02 -6.405E+01 -8.387E+01
528279 -6.461E+01 -8.366E+01 -5.624E-04 3.349E-02 -5.624E-04 3.349E-02 -6.461E+01 -8.366E+01
561524 -6.518E+01 -8.343E+01 -5.462E-04 3.137E-02 -5.462E-04 3.137E-02 -6.518E+01 -8.343E+01
596862 -6.574E+01 -8.318E+01 -5.310E-04 2.937E-02 -5.310E-04 2.937E-02 -6.574E+01 -8.318E+01
634423 -6.632E+01 -8.291E+01 -5.169E-04 2.748E-02 -5.169E-04 2.748E-02 -6.632E+01 -8.291E+01
674348 -6.689E+01 -8.262E+01 -5.038E-04 2.569E-02 -5.038E-04 2.569E-02 -6.689E+01 -8.262E+01
716785 -6.748E+01 -8.229E+01 -4.915E-04 2.400E-02 -4.915E-04 2.400E-02 -6.748E+01 -8.229E+01
761893 -6.807E+01 -8.194E+01 -4.802E-04 2.240E-02 -4.802E-04 2.240E-02 -6.807E+01 -8.194E+01
809840 -6.868E+01 -8.155E+01 -4.696E-04 2.088E-02 -4.696E-04 2.088E-02 -6.868E+01 -8.155E+01
860804 -6.929E+01 -8.112E+01 -4.599E-04 1.943E-02 -4.599E-04 1.943E-02 -6.929E+01 -8.112E+01
914976 -6.991E+01 -8.064E+01 -4.509E-04 1.807E-02 -4.509E-04 1.807E-02 -6.991E+01 -8.064E+01
972556 -7.055E+01 -8.011E+01 -4.426E-04 1.676E-02 -4.426E-04 1.676E-02 -7.055E+01 -8.011E+01
1033761 -7.120E+01 -7.952E+01 -4.350E-04 1.552E-02 -4.350E-04 1.552E-02 -7.120E+01 -7.952E+01
1098816 -7.187E+01 -7.885E+01 -4.281E-04 1.434E-02 -4.281E-04 1.434E-02 -7.187E+01 -7.885E+01
1167966 -7.255E+01 -7.810E+01 -4.217E-04 1.321E-02 -4.217E-04 1.321E-02 -7.255E+01 -7.810E+01
1241468 -7.327E+01 -7.725E+01 -4.160E-04 1.213E-02 -4.160E-04 1.213E-02 -7.327E+01 -7.725E+01
1319595 -7.400E+01 -7.627E+01 -4.109E-04 1.110E-02 -4.109E-04 1.110E-02 -7.400E+01 -7.627E+01
1402638 -7.477E+01 -7.514E+01 -4.063E-04 1.011E-02 -4.063E-04 1.011E-02 -7.477E+01 -7.514E+01
1490908 -7.558E+01 -7.383E+01 -4.023E-04 9.153E-03 -4.023E-04 9.153E-03 -7.558E+01 -7.383E+01
1584733 -7.643E+01 -7.227E+01 -3.988E-04 8.232E-03 -3.988E-04 8.232E-03 -7.643E+01 -7.227E+01
1684462 -7.733E+01 -7.042E+01 -3.959E-04 7.342E-03 -3.959E-04 7.342E-03 -7.733E+01 -7.042E+01
1790467 -7.829E+01 -6.817E+01 -3.934E-04 6.479E-03 -3.934E-04 6.479E-03 -7.829E+01 -6.817E+01
1903143 -7.931E+01 -6.540E+01 -3.914E-04 5.641E-03 -3.914E-04 5.641E-03 -7.931E+01 -6.540E+01
2022910 -8.041E+01 -6.192E+01 -3.900E-04 4.823E-03 -3.900E-04 4.823E-03 -8.041E+01 -6.192E+01
2150214 -8.159E+01 -5.747E+01 -3.890E-04 4.023E-03 -3.890E-04 4.023E-03 -8.159E+01 -5.747E+01
2285530 -8.284E+01 -5.165E+01 -3.884E-04 3.239E-03 -3.884E-04 3.239E-03 -8.284E+01 -5.165E+01
2429361 -8.414E+01 -4.391E+01 -3.884E-04 2.466E-03 -3.884E-04 2.466E-03 -8.414E+01 -4.391E+01
2582244 -8.540E+01 -3.358E+01 -3.889E-04 1.703E-03 -3.889E-04 1.703E-03 -8.540E+01 -3.358E+01
2744747 -8.641E+01 -2.019E+01 -3.898E-04 9.458E-04 -3.898E-04 9.458E-04 -8.641E+01 -2.019E+01
2917477 -8.690E+01 -4.261E+00 -3.912E-04 1.922E-04 -3.912E-04 1.922E-04 -8.690E+01 -4.261E+00
3101078 -8.669E+01 1.220E+01 -3.931E-04 -5.606E-04 -3.931E-04 -5.606E-04 -8.669E+01 1.220E+01
3296232 -8.585E+01 2.676E+01 -3.955E-04 -1.315E-03 -3.955E-04 -1.315E-03 -8.585E+01 2.676E+01
3503668 -8.467E+01 3.830E+01 -3.984E-04 -2.075E-03 -3.984E-04 -2.075E-03 -8.467E+01 3.830E+01
3724158 -8.337E+01 4.701E+01 -4.018E-04 -2.843E-03 -4.018E-04 -2.843E-03 -8.337E+01 4.701E+01
3958524 -8.209E+01 5.353E+01 -4.057E-04 -3.621E-03 -4.057E-04 -3.621E-03 -8.209E+01 5.353E+01
4207638 -8.088E+01 5.848E+01 -4.102E-04 -4.412E-03 -4.102E-04 -4.412E-03 -8.088E+01 5.848E+01
4472430 -7.975E+01 6.231E+01 -4.152E-04 -5.221E-03 -4.152E-04 -5.221E-03 -7.975E+01 6.231E+01
4753885 -7.870E+01 6.534E+01 -4.208E-04 -6.048E-03 -4.208E-04 -6.048E-03 -7.870E+01 6.534E+01
5053053 -7.772E+01 6.778E+01 -4.270E-04 -6.898E-03 -4.270E-04 -6.898E-03 -7.772E+01 6.778E+01
5371048 -7.680E+01 6.978E+01 -4.339E-04 -7.774E-03 -4.339E-04 -7.774E-03 -7.680E+01 6.978E+01
5709054 -7.593E+01 7.145E+01 -4.414E-04 -8.678E-03 -4.414E-04 -8.678E-03 -7.593E+01 7.145E+01
6068332 -7.511E+01 7.286E+01 -4.495E-04 -9.615E-03 -4.495E-04 -9.615E-03 -7.511E+01 7.286E+01
6450219 -7.433E+01 7.406E+01 -4.584E-04 -1.059E-02 -4.584E-04 -1.059E-02 -7.433E+01 7.406E+01
6856139 -7.358E+01 7.509E+01 -4.680E-04 -1.160E-02 -4.680E-04 -1.160E-02 -7.358E+01 7.509E+01
7287604 -7.285E+01 7.599E+01 -4.784E-04 -1.266E-02 -4.784E-04 -1.266E-02 -7.285E+01 7.599E+01
7746221 -7.216E+01 7.678E+01 -4.896E-04 -1.376E-02 -4.896E-04 -1.376E-02 -7.216E+01 7.678E+01
8233700 -7.148E+01 7.748E+01 -5.016E-04 -1.491E-02 -5.016E-04 -1.491E-02 -7.148E+01 7.748E+01
8751857 -7.083E+01 7.810E+01 -5.146E-04 -1.612E-02 -5.146E-04 -1.612E-02 -7.083E+01 7.810E+01
9302622 -7.018E+01 7.866E+01 -5.285E-04 -1.739E-02 -5.285E-04 -1.739E-02 -7.018E+01 7.866E+01
9888047 -6.956E+01 7.915E+01 -5.434E-04 -1.873E-02 -5.434E-04 -1.873E-02 -6.956E+01 7.915E+01
10510313 -6.894E+01 7.960E+01 -5.594E-04 -2.013E-02 -5.594E-04 -2.013E-02 -6.894E+01 7.960E+01
11171740 -6.834E+01 8.001E+01 -5.765E-04 -2.161E-02 -5.765E-04 -2.161E-02 -6.834E+01 8.001E+01
11874790 -6.774E+01 8.038E+01 -5.948E-04 -2.317E-02 -5.948E-04 -2.317E-02 -6.774E+01 8.038E+01
12622085 -6.715E+01 8.071E+01 -6.143E-04 -2.481E-02 -6.143E-04 -2.481E-02 -6.715E+01 8.071E+01
13416408 -6.657E+01 8.102E+01 -6.352E-04 -2.655E-02 -6.352E-04 -2.655E-02 -6.657E+01 8.102E+01
14260718 -6.600E+01 8.130E+01 -6.574E-04 -2.839E-02 -6.574E-04 -2.839E-02 -6.600E+01 8.130E+01
15158162 -6.543E+01 8.156E+01 -6.812E-04 -3.033E-02 -6.812E-04 -3.033E-02 -6.543E+01 8.156E+01
16112083 -6.487E+01 8.180E+01 -7.066E-04 -3.239E-02 -7.066E-04 -3.239E-02 -6.487E+01 8.180E+01
17126036 -6.431E+01 8.201E+01 -7.336E-04 -3.457E-02 -7.336E-04 -3.457E-02 -6.431E+01 8.201E+01
18203798 -6.375E+01 8.221E+01 -7.624E-04 -3.687E-02 -7.624E-04 -3.687E-02 -6.375E+01 8.221E+01
19349384 -6.320E+01 8.240E+01 -7.931E-04 -3.931E-02 -7.931E-04 -3.931E-02 -6.320E+01 8.240E+01
20567064 -6.265E+01 8.257E+01 -8.258E-04 -4.190E-02 -8.258E-04 -4.190E-02 -6.265E+01 8.257E+01
21861374 -6.210E+01 8.273E+01 -8.606E-04 -4.465E-02 -8.606E-04 -4.465E-02 -6.210E+01 8.273E+01
23237136 -6.155E+01 8.288E+01 -8.977E-04 -4.756E-02 -8.977E-04 -4.756E-02 -6.155E+01 8.288E+01
24699477 -6.101E+01 8.302E+01 -9.372E-04 -5.065E-02 -9.372E-04 -5.065E-02 -6.101E+01 8.302E+01
26253844 -6.046E+01 8.314E+01 -9.793E-04 -5.393E-02 -9.793E-04 -5.393E-02 -6.046E+01 8.314E+01
27906030 -5.992E+01 8.326E+01 -1.024E-03 -5.741E-02 -1.024E-03 -5.741E-02 -5.992E+01 8.326E+01
29662189 -5.938E+01 8.337E+01 -1.072E-03 -6.110E-02 -1.072E-03 -6.110E-02 -5.938E+01 8.337E+01
31528866 -5.885E+01 8.347E+01 -1.123E-03 -6.502E-02 -1.123E-03 -6.502E-02 -5.885E+01 8.347E+01
33513015 -5.831E+01 8.356E+01 -1.177E-03 -6.918E-02 -1.177E-03 -6.918E-02 -5.831E+01 8.356E+01
35622029 -5.777E+01 8.365E+01 -1.234E-03 -7.360E-02 -1.234E-03 -7.360E-02 -5.777E+01 8.365E+01
37863766 -5.724E+01 8.373E+01 -1.295E-03 -7.829E-02 -1.295E-03 -7.829E-02 -5.724E+01 8.373E+01
40246577 -5.670E+01 8.381E+01 -1.361E-03 -8.328E-02 -1.361E-03 -8.328E-02 -5.670E+01 8.381E+01
42779342 -5.617E+01 8.388E+01 -1.430E-03 -8.857E-02 -1.430E-03 -8.857E-02 -5.617E+01 8.388E+01
45471497 -5.563E+01 8.394E+01 -1.504E-03 -9.420E-02 -1.504E-03 -9.420E-02 -5.563E+01 8.394E+01
48333072 -5.510E+01 8.400E+01 -1.582E-03 -1.002E-01 -1.582E-03 -1.002E-01 -5.510E+01 8.400E+01
51374730 -5.457E+01 8.406E+01 -1.666E-03 -1.065E-01 -1.666E-03 -1.065E-01 -5.457E+01 8.406E+01
54607803 -5.404E+01 8.411E+01 -1.755E-03 -1.133E-01 -1.755E-03 -1.133E-01 -5.404E+01 8.411E+01
58044337 -5.350E+01 8.415E+01 -1.850E-03 -1.204E-01 -1.850E-03 -1.204E-01 -5.350E+01 8.415E+01
61697136 -5.297E+01 8.420E+01 -1.951E-03 -1.281E-01 -1.951E-03 -1.281E-01 -5.297E+01 8.420E+01
65579810 -5.244E+01 8.424E+01 -2.059E-03 -1.361E-01 -2.059E-03 -1.361E-01 -5.244E+01 8.424E+01
69706825 -5.191E+01 8.427E+01 -2.173E-03 -1.447E-01 -2.173E-03 -1.447E-01 -5.191E+01 8.427E+01
74093558 -5.138E+01 8.430E+01 -2.295E-03 -1.539E-01 -2.295E-03 -1.539E-01 -5.138E+01 8.430E+01
78756354 -5.085E+01 8.433E+01 -2.425E-03 -1.636E-01 -2.425E-03 -1.636E-01 -5.085E+01 8.433E+01
83712585 -5.032E+01 8.436E+01 -2.563E-03 -1.739E-01 -2.563E-03 -1.739E-01 -5.032E+01 8.436E+01
88980717 -4.979E+01 8.438E+01 -2.711E-03 -1.849E-01 -2.711E-03 -1.849E-01 -4.979E+01 8.438E+01
94580379 -4.925E+01 8.440E+01 -2.868E-03 -1.965E-01 -2.868E-03 -1.965E-01 -4.925E+01 8.440E+01
100532435 -4.872E+01 8.442E+01 -3.035E-03 -2.089E-01 -3.035E-03 -2.089E-01 -4.872E+01 8.442E+01
106859061 -4.819E+01 8.444E+01 -3.213E-03 -2.221E-01 -3.213E-03 -2.221E-01 -4.819E+01 8.444E+01
113583828 -4.766E+01 8.445E+01 -3.403E-03 -2.361E-01 -3.403E-03 -2.361E-01 -4.766E+01 8.445E+01
120731793 -4.713E+01 8.446E+01 -3.606E-03 -2.510E-01 -3.606E-03 -2.510E-01 -4.713E+01 8.446E+01
128329589 -4.660E+01 8.447E+01 -3.822E-03 -2.668E-01 -3.822E-03 -2.668E-01 -4.660E+01 8.447E+01
136405522 -4.607E+01 8.447E+01 -4.052E-03 -2.836E-01 -4.052E-03 -2.836E-01 -4.607E+01 8.447E+01
144989683 -4.554E+01 8.448E+01 -4.297E-03 -3.014E-01 -4.297E-03 -3.014E-01 -4.554E+01 8.448E+01
154114056 -4.501E+01 8.448E+01 -4.559E-03 -3.204E-01 -4.559E-03 -3.204E-01 -4.501E+01 8.448E+01
163812637 -4.448E+01 8.448E+01 -4.839E-03 -3.406E-01 -4.839E-03 -3.406E-01 -4.448E+01 8.448E+01
174121561 -4.395E+01 8.447E+01 -5.137E-03 -3.620E-01 -5.137E-03 -3.620E-01 -4.395E+01 8.447E+01
185079238 -4.342E+01 8.446E+01 -5.455E-03 -3.848E-01 -5.455E-03 -3.848E-01 -4.342E+01 8.446E+01
196726494 -4.289E+01 8.446E+01 -5.795E-03 -4.090E-01 -5.795E-03 -4.090E-01 -4.289E+01 8.446E+01
209106726 -4.236E+01 8.444E+01 -6.158E-03 -4.347E-01 -6.158E-03 -4.347E-01 -4.236E+01 8.444E+01
222266060 -4.183E+01 8.443E+01 -6.546E-03 -4.621E-01 -6.546E-03 -4.621E-01 -4.183E+01 8.443E+01
236253527 -4.130E+01 8.441E+01 -6.960E-03 -4.911E-01 -6.960E-03 -4.911E-01 -4.130E+01 8.441E+01
251121243 -4.077E+01 8.440E+01 -7.402E-03 -5.220E-01 -7.402E-03 -5.220E-01 -4.077E+01 8.440E+01
266924601 -4.024E+01 8.437E+01 -7.876E-03 -5.549E-01 -7.876E-03 -5.549E-01 -4.024E+01 8.437E+01
283722483 -3.972E+01 8.435E+01 -8.382E-03 -5.897E-01 -8.382E-03 -5.897E-01 -3.972E+01 8.435E+01
301577476 -3.919E+01 8.432E+01 -8.923E-03 -6.268E-01 -8.923E-03 -6.268E-01 -3.919E+01 8.432E+01
320556104 -3.866E+01 8.429E+01 -9.503E-03 -6.662E-01 -9.503E-03 -6.662E-01 -3.866E+01 8.429E+01
340729081 -3.813E+01 8.426E+01 -1.012E-02 -7.081E-01 -1.012E-02 -7.081E-01 -3.813E+01 8.426E+01
362171566 -3.760E+01 8.422E+01 -1.079E-02 -7.526E-01 -1.079E-02 -7.526E-01 -3.760E+01 8.422E+01
384963453 -3.707E+01 8.418E+01 -1.150E-02 -8.000E-01 -1.150E-02 -8.000E-01 -3.707E+01 8.418E+01
409189661 -3.654E+01 8.414E+01 -1.226E-02 -8.502E-01 -1.226E-02 -8.502E-01 -3.654E+01 8.414E+01
434940452 -3.601E+01 8.409E+01 -1.308E-02 -9.037E-01 -1.308E-02 -9.037E-01 -3.601E+01 8.409E+01
462311771 -3.548E+01 8.404E+01 -1.396E-02 -9.604E-01 -1.396E-02 -9.604E-01 -3.548E+01 8.404E+01
491405600 -3.495E+01 8.399E+01 -1.490E-02 -1.021E+00 -1.490E-02 -1.021E+00 -3.495E+01 8.399E+01
522330338 -3.442E+01 8.393E+01 -1.592E-02 -1.085E+00 -1.592E-02 -1.085E+00 -3.442E+01 8.393E+01
555201207 -3.389E+01 8.387E+01 -1.700E-02 -1.153E+00 -1.700E-02 -1.153E+00 -3.389E+01 8.387E+01
590140678 -3.336E+01 8.380E+01 -1.817E-02 -1.225E+00 -1.817E-02 -1.225E+00 -3.336E+01 8.380E+01
627278932 -3.284E+01 8.373E+01 -1.943E-02 -1.302E+00 -1.943E-02 -1.302E+00 -3.284E+01 8.373E+01
666754340 -3.231E+01 8.365E+01 -2.079E-02 -1.384E+00 -2.079E-02 -1.384E+00 -3.231E+01 8.365E+01
708713982 -3.178E+01 8.357E+01 -2.225E-02 -1.471E+00 -2.225E-02 -1.471E+00 -3.178E+01 8.357E+01
753314195 -3.125E+01 8.348E+01 -2.382E-02 -1.563E+00 -2.382E-02 -1.563E+00 -3.125E+01 8.348E+01
800721152 -3.072E+01 8.339E+01 -2.552E-02 -1.661E+00 -2.552E-02 -1.661E+00 -3.072E+01 8.339E+01
851111485 -3.019E+01 8.328E+01 -2.735E-02 -1.766E+00 -2.735E-02 -1.766E+00 -3.019E+01 8.328E+01
904672942 -2.967E+01 8.318E+01 -2.932E-02 -1.876E+00 -2.932E-02 -1.876E+00 -2.967E+01 8.318E+01
961605085 -2.914E+01 8.306E+01 -3.146E-02 -1.994E+00 -3.146E-02 -1.994E+00 -2.914E+01 8.306E+01
1022120035 -2.861E+01 8.294E+01 -3.377E-02 -2.119E+00 -3.377E-02 -2.119E+00 -2.861E+01 8.294E+01
1086443262 -2.808E+01 8.281E+01 -3.627E-02 -2.252E+00 -3.627E-02 -2.252E+00 -2.808E+01 8.281E+01
1154814427 -2.755E+01 8.267E+01 -3.898E-02 -2.393E+00 -3.898E-02 -2.393E+00 -2.755E+01 8.267E+01
1227488271 -2.703E+01 8.252E+01 -4.191E-02 -2.543E+00 -4.191E-02 -2.543E+00 -2.703E+01 8.252E+01
1304735566 -2.650E+01 8.237E+01 -4.509E-02 -2.702E+00 -4.509E-02 -2.702E+00 -2.650E+01 8.237E+01
1386844124 -2.597E+01 8.220E+01 -4.855E-02 -2.871E+00 -4.855E-02 -2.871E+00 -2.597E+01 8.220E+01
1474119872 -2.545E+01 8.202E+01 -5.230E-02 -3.050E+00 -5.230E-02 -3.050E+00 -2.545E+01 8.202E+01
1566887987 -2.492E+01 8.183E+01 -5.639E-02 -3.241E+00 -5.639E-02 -3.241E+00 -2.492E+01 8.183E+01
1665494109 -2.440E+01 8.163E+01 -6.083E-02 -3.443E+00 -6.083E-02 -3.443E+00 -2.440E+01 8.163E+01
1770305631 -2.387E+01 8.142E+01 -6.567E-02 -3.658E+00 -6.567E-02 -3.658E+00 -2.387E+01 8.142E+01
1881713067 -2.335E+01 8.119E+01 -7.094E-02 -3.887E+00 -7.094E-02 -3.887E+00 -2.335E+01 8.119E+01
2000131505 -2.282E+01 8.095E+01 -7.669E-02 -4.129E+00 -7.669E-02 -4.129E+00 -2.282E+01 8.095E+01
2126002157 -2.230E+01 8.070E+01 -8.297E-02 -4.386E+00 -8.297E-02 -4.386E+00 -2.230E+01 8.070E+01
2259793998 -2.177E+01 8.043E+01 -8.984E-02 -4.659E+00 -8.984E-02 -4.659E+00 -2.177E+01 8.043E+01
2402005518 -2.125E+01 8.014E+01 -9.734E-02 -4.949E+00 -9.734E-02 -4.949E+00 -2.125E+01 8.014E+01
2553166578 -2.073E+01 7.983E+01 -1.056E-01 -5.256E+00 -1.056E-01 -5.256E+00 -2.073E+01 7.983E+01
2713840383 -2.021E+01 7.951E+01 -1.145E-01 -5.582E+00 -1.145E-01 -5.582E+00 -2.021E+01 7.951E+01
2884625582 -1.969E+01 7.916E+01 -1.244E-01 -5.928E+00 -1.244E-01 -5.928E+00 -1.969E+01 7.916E+01
3066158496 -1.917E+01 7.880E+01 -1.352E-01 -6.294E+00 -1.352E-01 -6.294E+00 -1.917E+01 7.880E+01
3259115492 -1.865E+01 7.841E+01 -1.471E-01 -6.683E+00 -1.471E-01 -6.683E+00 -1.865E+01 7.841E+01
3464215500 -1.813E+01 7.800E+01 -1.601E-01 -7.095E+00 -1.601E-01 -7.095E+00 -1.813E+01 7.800E+01
3682222696 -1.762E+01 7.756E+01 -1.744E-01 -7.531E+00 -1.744E-01 -7.531E+00 -1.762E+01 7.756E+01
3913949344 -1.710E+01 7.710E+01 -1.902E-01 -7.994E+00 -1.902E-01 -7.994E+00 -1.710E+01 7.710E+01
4160258825 -1.659E+01 7.661E+01 -2.075E-01 -8.483E+00 -2.075E-01 -8.483E+00 -1.659E+01 7.661E+01
4422068854 -1.608E+01 7.609E+01 -2.265E-01 -9.002E+00 -2.265E-01 -9.002E+00 -1.608E+01 7.609E+01
4700354899 -1.557E+01 7.555E+01 -2.475E-01 -9.550E+00 -2.475E-01 -9.550E+00 -1.557E+01 7.555E+01
4996153816 -1.506E+01 7.497E+01 -2.706E-01 -1.013E+01 -2.706E-01 -1.013E+01 -1.506E+01 7.497E+01
5310567709 -1.456E+01 7.435E+01 -2.961E-01 -1.074E+01 -2.961E-01 -1.074E+01 -1.456E+01 7.435E+01
5644768043 -1.406E+01 7.371E+01 -3.242E-01 -1.139E+01 -3.242E-01 -1.139E+01 -1.406E+01 7.371E+01
6000000000 -1.356E+01 7.302E+01 -3.551E-01 -1.207E+01 -3.551E-01 -1.207E+01 -1.356E+01 7.302E+01
