!Murata Part Number:GRM155R71A473KA01
!These Parameters are Measured in Series Mode Connection
!       o--ll--o
!Port1            Port2
!       o------o
!Operation Temp=25[C], DC Bias Voltage=0[V]
!Freq. Start=30[kHz] Stop=6[GHz], 201[Steps]
# Hz S DB R 50
!Freq.[Hz] MagS11[dB] PhaseS11[DEG] MagS21[dB] PhaseS21[DEG] MagS12[dB] PhaseS12[DEG] MagS22[dB] PhaseS22[DEG]
30000 -2.389E+00 -3.945E+01 -3.936E+00 4.941E+01 -3.936E+00 4.941E+01 -2.389E+00 -3.945E+01
31888 -2.615E+00 -4.115E+01 -3.633E+00 4.772E+01 -3.633E+00 4.772E+01 -2.615E+00 -4.115E+01
33895 -2.858E+00 -4.286E+01 -3.346E+00 4.601E+01 -3.346E+00 4.601E+01 -2.858E+00 -4.286E+01
36028 -3.117E+00 -4.457E+01 -3.074E+00 4.430E+01 -3.074E+00 4.430E+01 -3.117E+00 -4.457E+01
38295 -3.391E+00 -4.628E+01 -2.818E+00 4.258E+01 -2.818E+00 4.258E+01 -3.391E+00 -4.628E+01
40705 -3.681E+00 -4.799E+01 -2.578E+00 4.088E+01 -2.578E+00 4.088E+01 -3.681E+00 -4.799E+01
43267 -3.987E+00 -4.968E+01 -2.354E+00 3.918E+01 -2.354E+00 3.918E+01 -3.987E+00 -4.968E+01
45989 -4.308E+00 -5.136E+01 -2.145E+00 3.751E+01 -2.145E+00 3.751E+01 -4.308E+00 -5.136E+01
48884 -4.644E+00 -5.301E+01 -1.951E+00 3.586E+01 -1.951E+00 3.586E+01 -4.644E+00 -5.301E+01
51960 -4.994E+00 -5.463E+01 -1.771E+00 3.424E+01 -1.771E+00 3.424E+01 -4.994E+00 -5.463E+01
55230 -5.358E+00 -5.621E+01 -1.605E+00 3.265E+01 -1.605E+00 3.265E+01 -5.358E+00 -5.621E+01
58705 -5.736E+00 -5.776E+01 -1.453E+00 3.110E+01 -1.453E+00 3.110E+01 -5.736E+00 -5.776E+01
62400 -6.126E+00 -5.927E+01 -1.313E+00 2.959E+01 -1.313E+00 2.959E+01 -6.126E+00 -5.927E+01
66327 -6.528E+00 -6.073E+01 -1.185E+00 2.813E+01 -1.185E+00 2.813E+01 -6.528E+00 -6.073E+01
70501 -6.942E+00 -6.214E+01 -1.068E+00 2.672E+01 -1.068E+00 2.672E+01 -6.942E+00 -6.214E+01
74937 -7.366E+00 -6.350E+01 -9.621E-01 2.535E+01 -9.621E-01 2.535E+01 -7.366E+00 -6.350E+01
79653 -7.799E+00 -6.482E+01 -8.656E-01 2.404E+01 -8.656E-01 2.404E+01 -7.799E+00 -6.482E+01
84666 -8.242E+00 -6.608E+01 -7.782E-01 2.277E+01 -7.782E-01 2.277E+01 -8.242E+00 -6.608E+01
89994 -8.693E+00 -6.729E+01 -6.991E-01 2.156E+01 -6.991E-01 2.156E+01 -8.693E+00 -6.729E+01
95658 -9.152E+00 -6.845E+01 -6.277E-01 2.040E+01 -6.277E-01 2.040E+01 -9.152E+00 -6.845E+01
101677 -9.617E+00 -6.956E+01 -5.633E-01 1.929E+01 -5.633E-01 1.929E+01 -9.617E+00 -6.956E+01
108076 -1.009E+01 -7.061E+01 -5.053E-01 1.824E+01 -5.053E-01 1.824E+01 -1.009E+01 -7.061E+01
114877 -1.057E+01 -7.162E+01 -4.531E-01 1.723E+01 -4.531E-01 1.723E+01 -1.057E+01 -7.162E+01
122107 -1.105E+01 -7.258E+01 -4.062E-01 1.627E+01 -4.062E-01 1.627E+01 -1.105E+01 -7.258E+01
129791 -1.154E+01 -7.349E+01 -3.641E-01 1.536E+01 -3.641E-01 1.536E+01 -1.154E+01 -7.349E+01
137959 -1.203E+01 -7.435E+01 -3.264E-01 1.449E+01 -3.264E-01 1.449E+01 -1.203E+01 -7.435E+01
146641 -1.253E+01 -7.517E+01 -2.926E-01 1.367E+01 -2.926E-01 1.367E+01 -1.253E+01 -7.517E+01
155869 -1.303E+01 -7.594E+01 -2.623E-01 1.289E+01 -2.623E-01 1.289E+01 -1.303E+01 -7.594E+01
165678 -1.353E+01 -7.668E+01 -2.351E-01 1.216E+01 -2.351E-01 1.216E+01 -1.353E+01 -7.668E+01
176105 -1.404E+01 -7.737E+01 -2.109E-01 1.146E+01 -2.109E-01 1.146E+01 -1.404E+01 -7.737E+01
187187 -1.454E+01 -7.803E+01 -1.892E-01 1.080E+01 -1.892E-01 1.080E+01 -1.454E+01 -7.803E+01
198967 -1.506E+01 -7.865E+01 -1.697E-01 1.018E+01 -1.697E-01 1.018E+01 -1.506E+01 -7.865E+01
211488 -1.557E+01 -7.924E+01 -1.524E-01 9.587E+00 -1.524E-01 9.587E+00 -1.557E+01 -7.924E+01
224797 -1.608E+01 -7.979E+01 -1.368E-01 9.030E+00 -1.368E-01 9.030E+00 -1.608E+01 -7.979E+01
238944 -1.660E+01 -8.031E+01 -1.230E-01 8.505E+00 -1.230E-01 8.505E+00 -1.660E+01 -8.031E+01
253981 -1.712E+01 -8.080E+01 -1.106E-01 8.010E+00 -1.106E-01 8.010E+00 -1.712E+01 -8.080E+01
269964 -1.764E+01 -8.126E+01 -9.946E-02 7.542E+00 -9.946E-02 7.542E+00 -1.764E+01 -8.126E+01
286954 -1.816E+01 -8.170E+01 -8.954E-02 7.102E+00 -8.954E-02 7.102E+00 -1.816E+01 -8.170E+01
305012 -1.868E+01 -8.211E+01 -8.066E-02 6.686E+00 -8.066E-02 6.686E+00 -1.868E+01 -8.211E+01
324207 -1.920E+01 -8.250E+01 -7.272E-02 6.294E+00 -7.272E-02 6.294E+00 -1.920E+01 -8.250E+01
344610 -1.972E+01 -8.286E+01 -6.562E-02 5.925E+00 -6.562E-02 5.925E+00 -1.972E+01 -8.286E+01
366296 -2.025E+01 -8.321E+01 -5.926E-02 5.577E+00 -5.926E-02 5.577E+00 -2.025E+01 -8.321E+01
389348 -2.077E+01 -8.353E+01 -5.357E-02 5.249E+00 -5.357E-02 5.249E+00 -2.077E+01 -8.353E+01
413850 -2.130E+01 -8.383E+01 -4.847E-02 4.941E+00 -4.847E-02 4.941E+00 -2.130E+01 -8.383E+01
439894 -2.182E+01 -8.411E+01 -4.390E-02 4.650E+00 -4.390E-02 4.650E+00 -2.182E+01 -8.411E+01
467577 -2.235E+01 -8.438E+01 -3.980E-02 4.376E+00 -3.980E-02 4.376E+00 -2.235E+01 -8.438E+01
497002 -2.287E+01 -8.463E+01 -3.613E-02 4.118E+00 -3.613E-02 4.118E+00 -2.287E+01 -8.463E+01
528279 -2.340E+01 -8.486E+01 -3.283E-02 3.875E+00 -3.283E-02 3.875E+00 -2.340E+01 -8.486E+01
561524 -2.393E+01 -8.508E+01 -2.987E-02 3.647E+00 -2.987E-02 3.647E+00 -2.393E+01 -8.508E+01
596862 -2.446E+01 -8.529E+01 -2.721E-02 3.431E+00 -2.721E-02 3.431E+00 -2.446E+01 -8.529E+01
634423 -2.498E+01 -8.548E+01 -2.482E-02 3.229E+00 -2.482E-02 3.229E+00 -2.498E+01 -8.548E+01
674348 -2.551E+01 -8.566E+01 -2.267E-02 3.038E+00 -2.267E-02 3.038E+00 -2.551E+01 -8.566E+01
716785 -2.604E+01 -8.583E+01 -2.073E-02 2.859E+00 -2.073E-02 2.859E+00 -2.604E+01 -8.583E+01
761893 -2.657E+01 -8.599E+01 -1.899E-02 2.690E+00 -1.899E-02 2.690E+00 -2.657E+01 -8.599E+01
809840 -2.710E+01 -8.614E+01 -1.742E-02 2.531E+00 -1.742E-02 2.531E+00 -2.710E+01 -8.614E+01
860804 -2.763E+01 -8.627E+01 -1.600E-02 2.381E+00 -1.600E-02 2.381E+00 -2.763E+01 -8.627E+01
914976 -2.816E+01 -8.640E+01 -1.472E-02 2.240E+00 -1.472E-02 2.240E+00 -2.816E+01 -8.640E+01
972556 -2.869E+01 -8.652E+01 -1.356E-02 2.107E+00 -1.356E-02 2.107E+00 -2.869E+01 -8.652E+01
1033761 -2.922E+01 -8.662E+01 -1.252E-02 1.983E+00 -1.252E-02 1.983E+00 -2.922E+01 -8.662E+01
1098816 -2.975E+01 -8.672E+01 -1.157E-02 1.865E+00 -1.157E-02 1.865E+00 -2.975E+01 -8.672E+01
1167966 -3.028E+01 -8.682E+01 -1.072E-02 1.755E+00 -1.072E-02 1.755E+00 -3.028E+01 -8.682E+01
1241468 -3.081E+01 -8.690E+01 -9.940E-03 1.651E+00 -9.940E-03 1.651E+00 -3.081E+01 -8.690E+01
1319595 -3.134E+01 -8.698E+01 -9.236E-03 1.553E+00 -9.236E-03 1.553E+00 -3.134E+01 -8.698E+01
1402638 -3.187E+01 -8.705E+01 -8.597E-03 1.461E+00 -8.597E-03 1.461E+00 -3.187E+01 -8.705E+01
1490908 -3.240E+01 -8.711E+01 -8.016E-03 1.374E+00 -8.016E-03 1.374E+00 -3.240E+01 -8.711E+01
1584733 -3.293E+01 -8.717E+01 -7.488E-03 1.293E+00 -7.488E-03 1.293E+00 -3.293E+01 -8.717E+01
1684462 -3.346E+01 -8.721E+01 -7.008E-03 1.216E+00 -7.008E-03 1.216E+00 -3.346E+01 -8.721E+01
1790467 -3.399E+01 -8.726E+01 -6.570E-03 1.144E+00 -6.570E-03 1.144E+00 -3.399E+01 -8.726E+01
1903143 -3.453E+01 -8.729E+01 -6.172E-03 1.076E+00 -6.172E-03 1.076E+00 -3.453E+01 -8.729E+01
2022910 -3.506E+01 -8.733E+01 -5.808E-03 1.012E+00 -5.808E-03 1.012E+00 -3.506E+01 -8.733E+01
2150214 -3.559E+01 -8.735E+01 -5.476E-03 9.513E-01 -5.476E-03 9.513E-01 -3.559E+01 -8.735E+01
2285530 -3.613E+01 -8.737E+01 -5.172E-03 8.946E-01 -5.172E-03 8.946E-01 -3.613E+01 -8.737E+01
2429361 -3.666E+01 -8.738E+01 -4.895E-03 8.413E-01 -4.895E-03 8.413E-01 -3.666E+01 -8.738E+01
2582244 -3.719E+01 -8.739E+01 -4.641E-03 7.910E-01 -4.641E-03 7.910E-01 -3.719E+01 -8.739E+01
2744747 -3.773E+01 -8.739E+01 -4.409E-03 7.437E-01 -4.409E-03 7.437E-01 -3.773E+01 -8.739E+01
2917477 -3.827E+01 -8.738E+01 -4.196E-03 6.992E-01 -4.196E-03 6.992E-01 -3.827E+01 -8.738E+01
3101078 -3.880E+01 -8.737E+01 -4.002E-03 6.573E-01 -4.002E-03 6.573E-01 -3.880E+01 -8.737E+01
3296232 -3.934E+01 -8.735E+01 -3.823E-03 6.178E-01 -3.823E-03 6.178E-01 -3.934E+01 -8.735E+01
3503668 -3.988E+01 -8.733E+01 -3.659E-03 5.806E-01 -3.659E-03 5.806E-01 -3.988E+01 -8.733E+01
3724158 -4.042E+01 -8.730E+01 -3.509E-03 5.456E-01 -3.509E-03 5.456E-01 -4.042E+01 -8.730E+01
3958524 -4.096E+01 -8.726E+01 -3.371E-03 5.126E-01 -3.371E-03 5.126E-01 -4.096E+01 -8.726E+01
4207638 -4.150E+01 -8.721E+01 -3.245E-03 4.815E-01 -3.245E-03 4.815E-01 -4.150E+01 -8.721E+01
4472430 -4.205E+01 -8.716E+01 -3.129E-03 4.523E-01 -3.129E-03 4.523E-01 -4.205E+01 -8.716E+01
4753885 -4.259E+01 -8.710E+01 -3.023E-03 4.247E-01 -3.023E-03 4.247E-01 -4.259E+01 -8.710E+01
5053053 -4.314E+01 -8.703E+01 -2.925E-03 3.986E-01 -2.925E-03 3.986E-01 -4.314E+01 -8.703E+01
5371048 -4.369E+01 -8.695E+01 -2.836E-03 3.741E-01 -2.836E-03 3.741E-01 -4.369E+01 -8.695E+01
5709054 -4.425E+01 -8.686E+01 -2.754E-03 3.510E-01 -2.754E-03 3.510E-01 -4.425E+01 -8.686E+01
6068332 -4.480E+01 -8.676E+01 -2.680E-03 3.291E-01 -2.680E-03 3.291E-01 -4.480E+01 -8.676E+01
6450219 -4.536E+01 -8.665E+01 -2.612E-03 3.085E-01 -2.612E-03 3.085E-01 -4.536E+01 -8.665E+01
6856139 -4.593E+01 -8.653E+01 -2.550E-03 2.891E-01 -2.550E-03 2.891E-01 -4.593E+01 -8.653E+01
7287604 -4.650E+01 -8.639E+01 -2.493E-03 2.707E-01 -2.493E-03 2.707E-01 -4.650E+01 -8.639E+01
7746221 -4.707E+01 -8.623E+01 -2.442E-03 2.533E-01 -2.442E-03 2.533E-01 -4.707E+01 -8.623E+01
8233700 -4.765E+01 -8.606E+01 -2.396E-03 2.369E-01 -2.396E-03 2.369E-01 -4.765E+01 -8.606E+01
8751857 -4.824E+01 -8.587E+01 -2.355E-03 2.213E-01 -2.355E-03 2.213E-01 -4.824E+01 -8.587E+01
9302622 -4.884E+01 -8.566E+01 -2.318E-03 2.066E-01 -2.318E-03 2.066E-01 -4.884E+01 -8.566E+01
9888047 -4.944E+01 -8.543E+01 -2.285E-03 1.926E-01 -2.285E-03 1.926E-01 -4.944E+01 -8.543E+01
10510313 -5.006E+01 -8.517E+01 -2.257E-03 1.794E-01 -2.257E-03 1.794E-01 -5.006E+01 -8.517E+01
11171740 -5.068E+01 -8.487E+01 -2.232E-03 1.668E-01 -2.232E-03 1.668E-01 -5.068E+01 -8.487E+01
11874790 -5.133E+01 -8.454E+01 -2.211E-03 1.549E-01 -2.211E-03 1.549E-01 -5.133E+01 -8.454E+01
12622085 -5.198E+01 -8.417E+01 -2.193E-03 1.435E-01 -2.193E-03 1.435E-01 -5.198E+01 -8.417E+01
13416408 -5.266E+01 -8.375E+01 -2.179E-03 1.327E-01 -2.179E-03 1.327E-01 -5.266E+01 -8.375E+01
14260718 -5.335E+01 -8.327E+01 -2.168E-03 1.223E-01 -2.168E-03 1.223E-01 -5.335E+01 -8.327E+01
15158162 -5.408E+01 -8.272E+01 -2.161E-03 1.124E-01 -2.161E-03 1.124E-01 -5.408E+01 -8.272E+01
16112083 -5.483E+01 -8.208E+01 -2.156E-03 1.030E-01 -2.156E-03 1.030E-01 -5.483E+01 -8.208E+01
17126036 -5.561E+01 -8.134E+01 -2.155E-03 9.388E-02 -2.155E-03 9.388E-02 -5.561E+01 -8.134E+01
18203798 -5.644E+01 -8.047E+01 -2.157E-03 8.515E-02 -2.157E-03 8.515E-02 -5.644E+01 -8.047E+01
19349384 -5.732E+01 -7.943E+01 -2.162E-03 7.673E-02 -2.162E-03 7.673E-02 -5.732E+01 -7.943E+01
20567064 -5.825E+01 -7.818E+01 -2.170E-03 6.860E-02 -2.170E-03 6.860E-02 -5.825E+01 -7.818E+01
21861374 -5.926E+01 -7.664E+01 -2.181E-03 6.072E-02 -2.181E-03 6.072E-02 -5.926E+01 -7.664E+01
23237136 -6.035E+01 -7.471E+01 -2.195E-03 5.307E-02 -2.195E-03 5.307E-02 -6.035E+01 -7.471E+01
24699477 -6.156E+01 -7.224E+01 -2.212E-03 4.562E-02 -2.212E-03 4.562E-02 -6.156E+01 -7.224E+01
26253844 -6.289E+01 -6.896E+01 -2.233E-03 3.833E-02 -2.233E-03 3.833E-02 -6.289E+01 -6.896E+01
27906030 -6.439E+01 -6.447E+01 -2.257E-03 3.119E-02 -2.257E-03 3.119E-02 -6.439E+01 -6.447E+01
29662189 -6.607E+01 -5.805E+01 -2.284E-03 2.417E-02 -2.284E-03 2.417E-02 -6.607E+01 -5.805E+01
31528866 -6.792E+01 -4.846E+01 -2.315E-03 1.724E-02 -2.315E-03 1.724E-02 -6.792E+01 -4.846E+01
33513015 -6.975E+01 -3.378E+01 -2.349E-03 1.037E-02 -2.349E-03 1.037E-02 -6.975E+01 -3.378E+01
35622029 -7.101E+01 -1.266E+01 -2.387E-03 3.538E-03 -2.387E-03 3.538E-03 -7.101E+01 -1.266E+01
37863766 -7.089E+01 1.157E+01 -2.429E-03 -3.280E-03 -2.429E-03 -3.280E-03 -7.089E+01 1.157E+01
40246577 -6.950E+01 3.176E+01 -2.475E-03 -1.011E-02 -2.475E-03 -1.011E-02 -6.950E+01 3.176E+01
42779342 -6.764E+01 4.554E+01 -2.525E-03 -1.698E-02 -2.525E-03 -1.698E-02 -6.764E+01 4.554E+01
45471497 -6.581E+01 5.455E+01 -2.579E-03 -2.391E-02 -2.579E-03 -2.391E-02 -6.581E+01 5.455E+01
48333072 -6.416E+01 6.062E+01 -2.638E-03 -3.093E-02 -2.638E-03 -3.093E-02 -6.416E+01 6.062E+01
51374730 -6.269E+01 6.489E+01 -2.702E-03 -3.806E-02 -2.702E-03 -3.806E-02 -6.269E+01 6.489E+01
54607803 -6.138E+01 6.802E+01 -2.770E-03 -4.534E-02 -2.770E-03 -4.534E-02 -6.138E+01 6.802E+01
58044337 -6.020E+01 7.040E+01 -2.844E-03 -5.278E-02 -2.844E-03 -5.278E-02 -6.020E+01 7.040E+01
61697136 -5.912E+01 7.227E+01 -2.924E-03 -6.042E-02 -2.924E-03 -6.042E-02 -5.912E+01 7.227E+01
65579810 -5.812E+01 7.376E+01 -3.009E-03 -6.829E-02 -3.009E-03 -6.829E-02 -5.812E+01 7.376E+01
69706825 -5.720E+01 7.497E+01 -3.101E-03 -7.641E-02 -3.101E-03 -7.641E-02 -5.720E+01 7.497E+01
74093558 -5.633E+01 7.598E+01 -3.199E-03 -8.481E-02 -3.199E-03 -8.481E-02 -5.633E+01 7.598E+01
78756354 -5.551E+01 7.683E+01 -3.305E-03 -9.353E-02 -3.305E-03 -9.353E-02 -5.551E+01 7.683E+01
83712585 -5.474E+01 7.756E+01 -3.417E-03 -1.026E-01 -3.417E-03 -1.026E-01 -5.474E+01 7.756E+01
88980717 -5.399E+01 7.818E+01 -3.538E-03 -1.121E-01 -3.538E-03 -1.121E-01 -5.399E+01 7.818E+01
94580379 -5.327E+01 7.872E+01 -3.667E-03 -1.219E-01 -3.667E-03 -1.219E-01 -5.327E+01 7.872E+01
100532435 -5.258E+01 7.919E+01 -3.804E-03 -1.322E-01 -3.804E-03 -1.322E-01 -5.258E+01 7.919E+01
106859061 -5.191E+01 7.960E+01 -3.952E-03 -1.431E-01 -3.952E-03 -1.431E-01 -5.191E+01 7.960E+01
113583828 -5.126E+01 7.997E+01 -4.109E-03 -1.544E-01 -4.109E-03 -1.544E-01 -5.126E+01 7.997E+01
120731793 -5.062E+01 8.029E+01 -4.276E-03 -1.663E-01 -4.276E-03 -1.663E-01 -5.062E+01 8.029E+01
128329589 -5.000E+01 8.058E+01 -4.455E-03 -1.789E-01 -4.455E-03 -1.789E-01 -5.000E+01 8.058E+01
136405522 -4.939E+01 8.084E+01 -4.646E-03 -1.921E-01 -4.646E-03 -1.921E-01 -4.939E+01 8.084E+01
144989683 -4.878E+01 8.107E+01 -4.850E-03 -2.060E-01 -4.850E-03 -2.060E-01 -4.878E+01 8.107E+01
154114056 -4.819E+01 8.128E+01 -5.067E-03 -2.207E-01 -5.067E-03 -2.207E-01 -4.819E+01 8.128E+01
163812637 -4.761E+01 8.146E+01 -5.299E-03 -2.362E-01 -5.299E-03 -2.362E-01 -4.761E+01 8.146E+01
174121561 -4.703E+01 8.163E+01 -5.547E-03 -2.526E-01 -5.547E-03 -2.526E-01 -4.703E+01 8.163E+01
185079238 -4.645E+01 8.178E+01 -5.811E-03 -2.699E-01 -5.811E-03 -2.699E-01 -4.645E+01 8.178E+01
196726494 -4.589E+01 8.192E+01 -6.092E-03 -2.883E-01 -6.092E-03 -2.883E-01 -4.589E+01 8.192E+01
209106726 -4.532E+01 8.204E+01 -6.393E-03 -3.077E-01 -6.393E-03 -3.077E-01 -4.532E+01 8.204E+01
222266060 -4.476E+01 8.215E+01 -6.714E-03 -3.282E-01 -6.714E-03 -3.282E-01 -4.476E+01 8.215E+01
236253527 -4.421E+01 8.225E+01 -7.056E-03 -3.500E-01 -7.056E-03 -3.500E-01 -4.421E+01 8.225E+01
251121243 -4.366E+01 8.234E+01 -7.422E-03 -3.731E-01 -7.422E-03 -3.731E-01 -4.366E+01 8.234E+01
266924601 -4.311E+01 8.242E+01 -7.812E-03 -3.975E-01 -7.812E-03 -3.975E-01 -4.311E+01 8.242E+01
283722483 -4.256E+01 8.248E+01 -8.228E-03 -4.235E-01 -8.228E-03 -4.235E-01 -4.256E+01 8.248E+01
301577476 -4.201E+01 8.254E+01 -8.673E-03 -4.510E-01 -8.673E-03 -4.510E-01 -4.201E+01 8.254E+01
320556104 -4.147E+01 8.260E+01 -9.149E-03 -4.802E-01 -9.149E-03 -4.802E-01 -4.147E+01 8.260E+01
340729081 -4.093E+01 8.264E+01 -9.656E-03 -5.112E-01 -9.656E-03 -5.112E-01 -4.093E+01 8.264E+01
362171566 -4.039E+01 8.268E+01 -1.020E-02 -5.441E-01 -1.020E-02 -5.441E-01 -4.039E+01 8.268E+01
384963453 -3.985E+01 8.271E+01 -1.078E-02 -5.790E-01 -1.078E-02 -5.790E-01 -3.985E+01 8.271E+01
409189661 -3.931E+01 8.273E+01 -1.140E-02 -6.161E-01 -1.140E-02 -6.161E-01 -3.931E+01 8.273E+01
434940452 -3.877E+01 8.275E+01 -1.206E-02 -6.555E-01 -1.206E-02 -6.555E-01 -3.877E+01 8.275E+01
462311771 -3.824E+01 8.276E+01 -1.277E-02 -6.973E-01 -1.277E-02 -6.973E-01 -3.824E+01 8.276E+01
491405600 -3.770E+01 8.277E+01 -1.353E-02 -7.417E-01 -1.353E-02 -7.417E-01 -3.770E+01 8.277E+01
522330338 -3.717E+01 8.276E+01 -1.435E-02 -7.889E-01 -1.435E-02 -7.889E-01 -3.717E+01 8.276E+01
555201207 -3.663E+01 8.276E+01 -1.522E-02 -8.390E-01 -1.522E-02 -8.390E-01 -3.663E+01 8.276E+01
590140678 -3.610E+01 8.274E+01 -1.616E-02 -8.923E-01 -1.616E-02 -8.923E-01 -3.610E+01 8.274E+01
627278932 -3.557E+01 8.272E+01 -1.716E-02 -9.489E-01 -1.716E-02 -9.489E-01 -3.557E+01 8.272E+01
666754340 -3.503E+01 8.270E+01 -1.823E-02 -1.009E+00 -1.823E-02 -1.009E+00 -3.503E+01 8.270E+01
708713982 -3.450E+01 8.267E+01 -1.939E-02 -1.073E+00 -1.939E-02 -1.073E+00 -3.450E+01 8.267E+01
753314195 -3.397E+01 8.263E+01 -2.063E-02 -1.141E+00 -2.063E-02 -1.141E+00 -3.397E+01 8.263E+01
800721152 -3.343E+01 8.258E+01 -2.196E-02 -1.213E+00 -2.196E-02 -1.213E+00 -3.343E+01 8.258E+01
851111485 -3.290E+01 8.253E+01 -2.340E-02 -1.290E+00 -2.340E-02 -1.290E+00 -3.290E+01 8.253E+01
904672942 -3.237E+01 8.247E+01 -2.494E-02 -1.371E+00 -2.494E-02 -1.371E+00 -3.237E+01 8.247E+01
961605085 -3.184E+01 8.241E+01 -2.660E-02 -1.458E+00 -2.660E-02 -1.458E+00 -3.184E+01 8.241E+01
1022120035 -3.130E+01 8.234E+01 -2.839E-02 -1.550E+00 -2.839E-02 -1.550E+00 -3.130E+01 8.234E+01
1086443262 -3.077E+01 8.226E+01 -3.032E-02 -1.649E+00 -3.032E-02 -1.649E+00 -3.077E+01 8.226E+01
1154814427 -3.024E+01 8.217E+01 -3.241E-02 -1.753E+00 -3.241E-02 -1.753E+00 -3.024E+01 8.217E+01
1227488271 -2.971E+01 8.207E+01 -3.466E-02 -1.864E+00 -3.466E-02 -1.864E+00 -2.971E+01 8.207E+01
1304735566 -2.917E+01 8.197E+01 -3.710E-02 -1.982E+00 -3.710E-02 -1.982E+00 -2.917E+01 8.197E+01
1386844124 -2.864E+01 8.186E+01 -3.974E-02 -2.108E+00 -3.974E-02 -2.108E+00 -2.864E+01 8.186E+01
1474119872 -2.811E+01 8.173E+01 -4.260E-02 -2.241E+00 -4.260E-02 -2.241E+00 -2.811E+01 8.173E+01
1566887987 -2.757E+01 8.160E+01 -4.570E-02 -2.384E+00 -4.570E-02 -2.384E+00 -2.757E+01 8.160E+01
1665494109 -2.704E+01 8.146E+01 -4.907E-02 -2.535E+00 -4.907E-02 -2.535E+00 -2.704E+01 8.146E+01
1770305631 -2.650E+01 8.130E+01 -5.273E-02 -2.697E+00 -5.273E-02 -2.697E+00 -2.650E+01 8.130E+01
1881713067 -2.596E+01 8.114E+01 -5.672E-02 -2.869E+00 -5.672E-02 -2.869E+00 -2.596E+01 8.114E+01
2000131505 -2.543E+01 8.096E+01 -6.107E-02 -3.052E+00 -6.107E-02 -3.052E+00 -2.543E+01 8.096E+01
2126002157 -2.489E+01 8.076E+01 -6.582E-02 -3.247E+00 -6.582E-02 -3.247E+00 -2.489E+01 8.076E+01
2259793998 -2.435E+01 8.055E+01 -7.102E-02 -3.456E+00 -7.102E-02 -3.456E+00 -2.435E+01 8.055E+01
2402005518 -2.381E+01 8.033E+01 -7.672E-02 -3.678E+00 -7.672E-02 -3.678E+00 -2.381E+01 8.033E+01
2553166578 -2.327E+01 8.009E+01 -8.298E-02 -3.916E+00 -8.298E-02 -3.916E+00 -2.327E+01 8.009E+01
2713840383 -2.272E+01 7.983E+01 -8.986E-02 -4.169E+00 -8.986E-02 -4.169E+00 -2.272E+01 7.983E+01
2884625582 -2.217E+01 7.955E+01 -9.744E-02 -4.441E+00 -9.744E-02 -4.441E+00 -2.217E+01 7.955E+01
3066158496 -2.163E+01 7.925E+01 -1.058E-01 -4.731E+00 -1.058E-01 -4.731E+00 -2.163E+01 7.925E+01
3259115492 -2.107E+01 7.892E+01 -1.151E-01 -5.042E+00 -1.151E-01 -5.042E+00 -2.107E+01 7.892E+01
3464215500 -2.052E+01 7.857E+01 -1.254E-01 -5.375E+00 -1.254E-01 -5.375E+00 -2.052E+01 7.857E+01
3682222696 -1.996E+01 7.819E+01 -1.369E-01 -5.733E+00 -1.369E-01 -5.733E+00 -1.996E+01 7.819E+01
3913949344 -1.940E+01 7.778E+01 -1.497E-01 -6.118E+00 -1.497E-01 -6.118E+00 -1.940E+01 7.778E+01
4160258825 -1.883E+01 7.733E+01 -1.641E-01 -6.532E+00 -1.641E-01 -6.532E+00 -1.883E+01 7.733E+01
4422068854 -1.826E+01 7.685E+01 -1.803E-01 -6.978E+00 -1.803E-01 -6.978E+00 -1.826E+01 7.685E+01
4700354899 -1.768E+01 7.633E+01 -1.986E-01 -7.460E+00 -1.986E-01 -7.460E+00 -1.768E+01 7.633E+01
4996153816 -1.710E+01 7.575E+01 -2.193E-01 -7.983E+00 -2.193E-01 -7.983E+00 -1.710E+01 7.575E+01
5310567709 -1.650E+01 7.513E+01 -2.429E-01 -8.549E+00 -2.429E-01 -8.549E+00 -1.650E+01 7.513E+01
5644768043 -1.590E+01 7.444E+01 -2.700E-01 -9.166E+00 -2.700E-01 -9.166E+00 -1.590E+01 7.444E+01
6000000000 -1.529E+01 7.369E+01 -3.012E-01 -9.839E+00 -3.012E-01 -9.839E+00 -1.529E+01 7.369E+01
