!Murata Part Number:GRM155R60J105KE19
!These Parameters are Measured in Series Mode Connection
!       o--ll--o
!Port1            Port2
!       o------o
!Operation Temp=25[C], DC Bias Voltage=0[V]
!Freq. Start=30[kHz] Stop=6[GHz], 201[Steps]
# Hz S DB R 50
!Freq.[Hz] MagS11[dB] PhaseS11[DEG] MagS21[dB] PhaseS21[DEG] MagS12[dB] PhaseS12[DEG] MagS22[dB] PhaseS22[DEG]
30000 -2.148E+01 -8.221E+01 -6.896E-02 4.833E+00 -6.896E-02 4.833E+00 -2.148E+01 -8.221E+01
31888 -2.200E+01 -8.249E+01 -6.321E-02 4.549E+00 -6.321E-02 4.549E+00 -2.200E+01 -8.249E+01
33895 -2.253E+01 -8.276E+01 -5.800E-02 4.282E+00 -5.800E-02 4.282E+00 -2.253E+01 -8.276E+01
36028 -2.305E+01 -8.301E+01 -5.326E-02 4.030E+00 -5.326E-02 4.030E+00 -2.305E+01 -8.301E+01
38295 -2.358E+01 -8.324E+01 -4.895E-02 3.793E+00 -4.895E-02 3.793E+00 -2.358E+01 -8.324E+01
40705 -2.410E+01 -8.346E+01 -4.503E-02 3.570E+00 -4.503E-02 3.570E+00 -2.410E+01 -8.346E+01
43267 -2.463E+01 -8.367E+01 -4.147E-02 3.359E+00 -4.147E-02 3.359E+00 -2.463E+01 -8.367E+01
45989 -2.516E+01 -8.386E+01 -3.822E-02 3.162E+00 -3.822E-02 3.162E+00 -2.516E+01 -8.386E+01
48884 -2.568E+01 -8.404E+01 -3.525E-02 2.975E+00 -3.525E-02 2.975E+00 -2.568E+01 -8.404E+01
51960 -2.621E+01 -8.422E+01 -3.255E-02 2.800E+00 -3.255E-02 2.800E+00 -2.621E+01 -8.422E+01
55230 -2.674E+01 -8.438E+01 -3.008E-02 2.635E+00 -3.008E-02 2.635E+00 -2.674E+01 -8.438E+01
58705 -2.727E+01 -8.453E+01 -2.782E-02 2.479E+00 -2.782E-02 2.479E+00 -2.727E+01 -8.453E+01
62400 -2.780E+01 -8.467E+01 -2.575E-02 2.333E+00 -2.575E-02 2.333E+00 -2.780E+01 -8.467E+01
66327 -2.832E+01 -8.480E+01 -2.385E-02 2.195E+00 -2.385E-02 2.195E+00 -2.832E+01 -8.480E+01
70501 -2.885E+01 -8.493E+01 -2.212E-02 2.066E+00 -2.212E-02 2.066E+00 -2.885E+01 -8.493E+01
74937 -2.938E+01 -8.504E+01 -2.052E-02 1.944E+00 -2.052E-02 1.944E+00 -2.938E+01 -8.504E+01
79653 -2.991E+01 -8.515E+01 -1.906E-02 1.829E+00 -1.906E-02 1.829E+00 -2.991E+01 -8.515E+01
84666 -3.044E+01 -8.525E+01 -1.771E-02 1.721E+00 -1.771E-02 1.721E+00 -3.044E+01 -8.525E+01
89994 -3.097E+01 -8.535E+01 -1.648E-02 1.619E+00 -1.648E-02 1.619E+00 -3.097E+01 -8.535E+01
95658 -3.150E+01 -8.544E+01 -1.534E-02 1.523E+00 -1.534E-02 1.523E+00 -3.150E+01 -8.544E+01
101677 -3.202E+01 -8.552E+01 -1.429E-02 1.433E+00 -1.429E-02 1.433E+00 -3.202E+01 -8.552E+01
108076 -3.255E+01 -8.560E+01 -1.332E-02 1.348E+00 -1.332E-02 1.348E+00 -3.255E+01 -8.560E+01
114877 -3.308E+01 -8.567E+01 -1.243E-02 1.269E+00 -1.243E-02 1.269E+00 -3.308E+01 -8.567E+01
122107 -3.361E+01 -8.574E+01 -1.160E-02 1.194E+00 -1.160E-02 1.194E+00 -3.361E+01 -8.574E+01
129791 -3.414E+01 -8.580E+01 -1.084E-02 1.123E+00 -1.084E-02 1.123E+00 -3.414E+01 -8.580E+01
137959 -3.467E+01 -8.585E+01 -1.013E-02 1.057E+00 -1.013E-02 1.057E+00 -3.467E+01 -8.585E+01
146641 -3.520E+01 -8.590E+01 -9.477E-03 9.942E-01 -9.477E-03 9.942E-01 -3.520E+01 -8.590E+01
155869 -3.573E+01 -8.595E+01 -8.872E-03 9.353E-01 -8.872E-03 9.353E-01 -3.573E+01 -8.595E+01
165678 -3.626E+01 -8.600E+01 -8.311E-03 8.800E-01 -8.311E-03 8.800E-01 -3.626E+01 -8.600E+01
176105 -3.679E+01 -8.603E+01 -7.790E-03 8.279E-01 -7.790E-03 8.279E-01 -3.679E+01 -8.603E+01
187187 -3.732E+01 -8.607E+01 -7.307E-03 7.789E-01 -7.307E-03 7.789E-01 -3.732E+01 -8.607E+01
198967 -3.785E+01 -8.610E+01 -6.858E-03 7.328E-01 -6.858E-03 7.328E-01 -3.785E+01 -8.610E+01
211488 -3.838E+01 -8.613E+01 -6.441E-03 6.894E-01 -6.441E-03 6.894E-01 -3.838E+01 -8.613E+01
224797 -3.891E+01 -8.615E+01 -6.054E-03 6.486E-01 -6.054E-03 6.486E-01 -3.891E+01 -8.615E+01
238944 -3.944E+01 -8.617E+01 -5.693E-03 6.102E-01 -5.693E-03 6.102E-01 -3.944E+01 -8.617E+01
253981 -3.997E+01 -8.619E+01 -5.357E-03 5.740E-01 -5.357E-03 5.740E-01 -3.997E+01 -8.619E+01
269964 -4.050E+01 -8.620E+01 -5.044E-03 5.400E-01 -5.044E-03 5.400E-01 -4.050E+01 -8.620E+01
286954 -4.103E+01 -8.621E+01 -4.753E-03 5.080E-01 -4.753E-03 5.080E-01 -4.103E+01 -8.621E+01
305012 -4.156E+01 -8.622E+01 -4.481E-03 4.779E-01 -4.481E-03 4.779E-01 -4.156E+01 -8.622E+01
324207 -4.209E+01 -8.623E+01 -4.228E-03 4.495E-01 -4.228E-03 4.495E-01 -4.209E+01 -8.623E+01
344610 -4.262E+01 -8.623E+01 -3.992E-03 4.229E-01 -3.992E-03 4.229E-01 -4.262E+01 -8.623E+01
366296 -4.315E+01 -8.622E+01 -3.771E-03 3.978E-01 -3.771E-03 3.978E-01 -4.315E+01 -8.622E+01
389348 -4.369E+01 -8.622E+01 -3.565E-03 3.742E-01 -3.565E-03 3.742E-01 -4.369E+01 -8.622E+01
413850 -4.422E+01 -8.621E+01 -3.373E-03 3.520E-01 -3.373E-03 3.520E-01 -4.422E+01 -8.621E+01
439894 -4.475E+01 -8.619E+01 -3.193E-03 3.311E-01 -3.193E-03 3.311E-01 -4.475E+01 -8.619E+01
467577 -4.528E+01 -8.618E+01 -3.026E-03 3.114E-01 -3.026E-03 3.114E-01 -4.528E+01 -8.618E+01
497002 -4.581E+01 -8.616E+01 -2.869E-03 2.929E-01 -2.869E-03 2.929E-01 -4.581E+01 -8.616E+01
528279 -4.634E+01 -8.613E+01 -2.722E-03 2.755E-01 -2.722E-03 2.755E-01 -4.634E+01 -8.613E+01
561524 -4.688E+01 -8.610E+01 -2.585E-03 2.591E-01 -2.585E-03 2.591E-01 -4.688E+01 -8.610E+01
596862 -4.741E+01 -8.607E+01 -2.457E-03 2.436E-01 -2.457E-03 2.436E-01 -4.741E+01 -8.607E+01
634423 -4.794E+01 -8.604E+01 -2.337E-03 2.291E-01 -2.337E-03 2.291E-01 -4.794E+01 -8.604E+01
674348 -4.848E+01 -8.600E+01 -2.225E-03 2.154E-01 -2.225E-03 2.154E-01 -4.848E+01 -8.600E+01
716785 -4.901E+01 -8.595E+01 -2.120E-03 2.026E-01 -2.120E-03 2.026E-01 -4.901E+01 -8.595E+01
761893 -4.955E+01 -8.590E+01 -2.021E-03 1.904E-01 -2.021E-03 1.904E-01 -4.955E+01 -8.590E+01
809840 -5.008E+01 -8.584E+01 -1.930E-03 1.790E-01 -1.930E-03 1.790E-01 -5.008E+01 -8.584E+01
860804 -5.062E+01 -8.578E+01 -1.844E-03 1.683E-01 -1.844E-03 1.683E-01 -5.062E+01 -8.578E+01
914976 -5.116E+01 -8.572E+01 -1.763E-03 1.582E-01 -1.763E-03 1.582E-01 -5.116E+01 -8.572E+01
972556 -5.170E+01 -8.564E+01 -1.688E-03 1.487E-01 -1.688E-03 1.487E-01 -5.170E+01 -8.564E+01
1033761 -5.223E+01 -8.556E+01 -1.618E-03 1.397E-01 -1.618E-03 1.397E-01 -5.223E+01 -8.556E+01
1098816 -5.278E+01 -8.547E+01 -1.552E-03 1.312E-01 -1.552E-03 1.312E-01 -5.278E+01 -8.547E+01
1167966 -5.332E+01 -8.538E+01 -1.490E-03 1.233E-01 -1.490E-03 1.233E-01 -5.332E+01 -8.538E+01
1241468 -5.386E+01 -8.527E+01 -1.433E-03 1.158E-01 -1.433E-03 1.158E-01 -5.386E+01 -8.527E+01
1319595 -5.441E+01 -8.516E+01 -1.379E-03 1.087E-01 -1.379E-03 1.087E-01 -5.441E+01 -8.516E+01
1402638 -5.496E+01 -8.504E+01 -1.329E-03 1.020E-01 -1.329E-03 1.020E-01 -5.496E+01 -8.504E+01
1490908 -5.551E+01 -8.490E+01 -1.283E-03 9.575E-02 -1.283E-03 9.575E-02 -5.551E+01 -8.490E+01
1584733 -5.606E+01 -8.475E+01 -1.239E-03 8.982E-02 -1.239E-03 8.982E-02 -5.606E+01 -8.475E+01
1684462 -5.662E+01 -8.459E+01 -1.199E-03 8.422E-02 -1.199E-03 8.422E-02 -5.662E+01 -8.459E+01
1790467 -5.718E+01 -8.442E+01 -1.161E-03 7.894E-02 -1.161E-03 7.894E-02 -5.718E+01 -8.442E+01
1903143 -5.774E+01 -8.423E+01 -1.126E-03 7.395E-02 -1.126E-03 7.395E-02 -5.774E+01 -8.423E+01
2022910 -5.831E+01 -8.402E+01 -1.094E-03 6.924E-02 -1.094E-03 6.924E-02 -5.831E+01 -8.402E+01
2150214 -5.888E+01 -8.379E+01 -1.064E-03 6.479E-02 -1.064E-03 6.479E-02 -5.888E+01 -8.379E+01
2285530 -5.946E+01 -8.353E+01 -1.036E-03 6.058E-02 -1.036E-03 6.058E-02 -5.946E+01 -8.353E+01
2429361 -6.005E+01 -8.326E+01 -1.010E-03 5.659E-02 -1.010E-03 5.659E-02 -6.005E+01 -8.326E+01
2582244 -6.064E+01 -8.295E+01 -9.867E-04 5.281E-02 -9.867E-04 5.281E-02 -6.064E+01 -8.295E+01
2744747 -6.125E+01 -8.261E+01 -9.651E-04 4.923E-02 -9.651E-04 4.923E-02 -6.125E+01 -8.261E+01
2917477 -6.186E+01 -8.223E+01 -9.455E-04 4.584E-02 -9.455E-04 4.584E-02 -6.186E+01 -8.223E+01
3101078 -6.248E+01 -8.181E+01 -9.276E-04 4.261E-02 -9.276E-04 4.261E-02 -6.248E+01 -8.181E+01
3296232 -6.312E+01 -8.133E+01 -9.115E-04 3.954E-02 -9.115E-04 3.954E-02 -6.312E+01 -8.133E+01
3503668 -6.378E+01 -8.080E+01 -8.971E-04 3.662E-02 -8.971E-04 3.662E-02 -6.378E+01 -8.080E+01
3724158 -6.445E+01 -8.020E+01 -8.843E-04 3.384E-02 -8.843E-04 3.384E-02 -6.445E+01 -8.020E+01
3958524 -6.514E+01 -7.952E+01 -8.731E-04 3.118E-02 -8.731E-04 3.118E-02 -6.514E+01 -7.952E+01
4207638 -6.585E+01 -7.874E+01 -8.634E-04 2.864E-02 -8.634E-04 2.864E-02 -6.585E+01 -7.874E+01
4472430 -6.660E+01 -7.784E+01 -8.552E-04 2.621E-02 -8.552E-04 2.621E-02 -6.660E+01 -7.784E+01
4753885 -6.737E+01 -7.679E+01 -8.485E-04 2.387E-02 -8.485E-04 2.387E-02 -6.737E+01 -7.679E+01
5053053 -6.818E+01 -7.557E+01 -8.432E-04 2.163E-02 -8.432E-04 2.163E-02 -6.818E+01 -7.557E+01
5371048 -6.904E+01 -7.411E+01 -8.393E-04 1.946E-02 -8.393E-04 1.946E-02 -6.904E+01 -7.411E+01
5709054 -6.995E+01 -7.236E+01 -8.368E-04 1.737E-02 -8.368E-04 1.737E-02 -6.995E+01 -7.236E+01
6068332 -7.092E+01 -7.022E+01 -8.356E-04 1.534E-02 -8.356E-04 1.534E-02 -7.092E+01 -7.022E+01
6450219 -7.196E+01 -6.757E+01 -8.359E-04 1.336E-02 -8.359E-04 1.336E-02 -7.196E+01 -6.757E+01
6856139 -7.308E+01 -6.422E+01 -8.375E-04 1.144E-02 -8.375E-04 1.144E-02 -7.308E+01 -6.422E+01
7287604 -7.429E+01 -5.988E+01 -8.405E-04 9.561E-03 -8.405E-04 9.561E-03 -7.429E+01 -5.988E+01
7746221 -7.559E+01 -5.415E+01 -8.450E-04 7.716E-03 -8.450E-04 7.716E-03 -7.559E+01 -5.415E+01
8233700 -7.695E+01 -4.643E+01 -8.508E-04 5.900E-03 -8.508E-04 5.900E-03 -7.695E+01 -4.643E+01
8751857 -7.827E+01 -3.596E+01 -8.580E-04 4.107E-03 -8.580E-04 4.107E-03 -7.827E+01 -3.596E+01
9302622 -7.935E+01 -2.216E+01 -8.667E-04 2.328E-03 -8.667E-04 2.328E-03 -7.935E+01 -2.216E+01
9888047 -7.988E+01 -5.516E+00 -8.769E-04 5.587E-04 -8.769E-04 5.587E-04 -7.988E+01 -5.516E+00
10510313 -7.962E+01 1.165E+01 -8.886E-04 -1.209E-03 -8.886E-04 -1.209E-03 -7.962E+01 1.165E+01
11171740 -7.870E+01 2.661E+01 -9.019E-04 -2.981E-03 -9.019E-04 -2.981E-03 -7.870E+01 2.661E+01
11874790 -7.743E+01 3.823E+01 -9.169E-04 -4.764E-03 -9.169E-04 -4.764E-03 -7.743E+01 3.823E+01
12622085 -7.608E+01 4.683E+01 -9.335E-04 -6.565E-03 -9.335E-04 -6.565E-03 -7.608E+01 4.683E+01
13416408 -7.476E+01 5.319E+01 -9.518E-04 -8.391E-03 -9.518E-04 -8.391E-03 -7.476E+01 5.319E+01
14260718 -7.352E+01 5.796E+01 -9.719E-04 -1.025E-02 -9.719E-04 -1.025E-02 -7.352E+01 5.796E+01
15158162 -7.237E+01 6.163E+01 -9.940E-04 -1.214E-02 -9.940E-04 -1.214E-02 -7.237E+01 6.163E+01
16112083 -7.130E+01 6.450E+01 -1.018E-03 -1.408E-02 -1.018E-03 -1.408E-02 -7.130E+01 6.450E+01
17126036 -7.031E+01 6.680E+01 -1.044E-03 -1.607E-02 -1.044E-03 -1.607E-02 -7.031E+01 6.680E+01
18203798 -6.938E+01 6.868E+01 -1.072E-03 -1.813E-02 -1.072E-03 -1.813E-02 -6.938E+01 6.868E+01
19349384 -6.851E+01 7.023E+01 -1.103E-03 -2.025E-02 -1.103E-03 -2.025E-02 -6.851E+01 7.023E+01
20567064 -6.768E+01 7.153E+01 -1.135E-03 -2.244E-02 -1.135E-03 -2.244E-02 -6.768E+01 7.153E+01
21861374 -6.690E+01 7.264E+01 -1.171E-03 -2.472E-02 -1.171E-03 -2.472E-02 -6.690E+01 7.264E+01
23237136 -6.615E+01 7.359E+01 -1.209E-03 -2.709E-02 -1.209E-03 -2.709E-02 -6.615E+01 7.359E+01
24699477 -6.542E+01 7.441E+01 -1.250E-03 -2.956E-02 -1.250E-03 -2.956E-02 -6.542E+01 7.441E+01
26253844 -6.472E+01 7.512E+01 -1.293E-03 -3.215E-02 -1.293E-03 -3.215E-02 -6.472E+01 7.512E+01
27906030 -6.405E+01 7.575E+01 -1.340E-03 -3.485E-02 -1.340E-03 -3.485E-02 -6.405E+01 7.575E+01
29662189 -6.339E+01 7.630E+01 -1.390E-03 -3.768E-02 -1.390E-03 -3.768E-02 -6.339E+01 7.630E+01
31528866 -6.275E+01 7.680E+01 -1.444E-03 -4.065E-02 -1.444E-03 -4.065E-02 -6.275E+01 7.680E+01
33513015 -6.212E+01 7.724E+01 -1.501E-03 -4.378E-02 -1.501E-03 -4.378E-02 -6.212E+01 7.724E+01
35622029 -6.151E+01 7.763E+01 -1.562E-03 -4.706E-02 -1.562E-03 -4.706E-02 -6.151E+01 7.763E+01
37863766 -6.090E+01 7.798E+01 -1.627E-03 -5.052E-02 -1.627E-03 -5.052E-02 -6.090E+01 7.798E+01
40246577 -6.031E+01 7.830E+01 -1.696E-03 -5.417E-02 -1.696E-03 -5.417E-02 -6.031E+01 7.830E+01
42779342 -5.972E+01 7.859E+01 -1.770E-03 -5.802E-02 -1.770E-03 -5.802E-02 -5.972E+01 7.859E+01
45471497 -5.914E+01 7.885E+01 -1.850E-03 -6.209E-02 -1.850E-03 -6.209E-02 -5.914E+01 7.885E+01
48333072 -5.856E+01 7.909E+01 -1.934E-03 -6.639E-02 -1.934E-03 -6.639E-02 -5.856E+01 7.909E+01
51374730 -5.799E+01 7.931E+01 -2.024E-03 -7.094E-02 -2.024E-03 -7.094E-02 -5.799E+01 7.931E+01
54607803 -5.743E+01 7.951E+01 -2.119E-03 -7.575E-02 -2.119E-03 -7.575E-02 -5.743E+01 7.951E+01
58044337 -5.687E+01 7.969E+01 -2.221E-03 -8.084E-02 -2.221E-03 -8.084E-02 -5.687E+01 7.969E+01
61697136 -5.631E+01 7.985E+01 -2.330E-03 -8.623E-02 -2.330E-03 -8.623E-02 -5.631E+01 7.985E+01
65579810 -5.576E+01 8.000E+01 -2.445E-03 -9.195E-02 -2.445E-03 -9.195E-02 -5.576E+01 8.000E+01
69706825 -5.521E+01 8.014E+01 -2.568E-03 -9.800E-02 -2.568E-03 -9.800E-02 -5.521E+01 8.014E+01
74093558 -5.466E+01 8.027E+01 -2.699E-03 -1.044E-01 -2.699E-03 -1.044E-01 -5.466E+01 8.027E+01
78756354 -5.412E+01 8.039E+01 -2.839E-03 -1.112E-01 -2.839E-03 -1.112E-01 -5.412E+01 8.039E+01
83712585 -5.357E+01 8.050E+01 -2.987E-03 -1.185E-01 -2.987E-03 -1.185E-01 -5.357E+01 8.050E+01
88980717 -5.303E+01 8.060E+01 -3.145E-03 -1.261E-01 -3.145E-03 -1.261E-01 -5.303E+01 8.060E+01
94580379 -5.249E+01 8.069E+01 -3.314E-03 -1.343E-01 -3.314E-03 -1.343E-01 -5.249E+01 8.069E+01
100532435 -5.195E+01 8.077E+01 -3.493E-03 -1.429E-01 -3.493E-03 -1.429E-01 -5.195E+01 8.077E+01
106859061 -5.141E+01 8.084E+01 -3.684E-03 -1.521E-01 -3.684E-03 -1.521E-01 -5.141E+01 8.084E+01
113583828 -5.088E+01 8.091E+01 -3.887E-03 -1.618E-01 -3.887E-03 -1.618E-01 -5.088E+01 8.091E+01
120731793 -5.034E+01 8.098E+01 -4.103E-03 -1.721E-01 -4.103E-03 -1.721E-01 -5.034E+01 8.098E+01
128329589 -4.981E+01 8.104E+01 -4.333E-03 -1.831E-01 -4.333E-03 -1.831E-01 -4.981E+01 8.104E+01
136405522 -4.927E+01 8.109E+01 -4.578E-03 -1.948E-01 -4.578E-03 -1.948E-01 -4.927E+01 8.109E+01
144989683 -4.874E+01 8.114E+01 -4.839E-03 -2.071E-01 -4.839E-03 -2.071E-01 -4.874E+01 8.114E+01
154114056 -4.820E+01 8.118E+01 -5.117E-03 -2.203E-01 -5.117E-03 -2.203E-01 -4.820E+01 8.118E+01
163812637 -4.767E+01 8.122E+01 -5.413E-03 -2.343E-01 -5.413E-03 -2.343E-01 -4.767E+01 8.122E+01
174121561 -4.714E+01 8.125E+01 -5.728E-03 -2.491E-01 -5.728E-03 -2.491E-01 -4.714E+01 8.125E+01
185079238 -4.661E+01 8.128E+01 -6.064E-03 -2.649E-01 -6.064E-03 -2.649E-01 -4.661E+01 8.128E+01
196726494 -4.607E+01 8.131E+01 -6.421E-03 -2.816E-01 -6.421E-03 -2.816E-01 -4.607E+01 8.131E+01
209106726 -4.554E+01 8.133E+01 -6.802E-03 -2.994E-01 -6.802E-03 -2.994E-01 -4.554E+01 8.133E+01
222266060 -4.501E+01 8.135E+01 -7.208E-03 -3.183E-01 -7.208E-03 -3.183E-01 -4.501E+01 8.135E+01
236253527 -4.448E+01 8.136E+01 -7.640E-03 -3.384E-01 -7.640E-03 -3.384E-01 -4.448E+01 8.136E+01
251121243 -4.395E+01 8.137E+01 -8.101E-03 -3.598E-01 -8.101E-03 -3.598E-01 -4.395E+01 8.137E+01
266924601 -4.342E+01 8.138E+01 -8.592E-03 -3.825E-01 -8.592E-03 -3.825E-01 -4.342E+01 8.138E+01
283722483 -4.289E+01 8.138E+01 -9.115E-03 -4.066E-01 -9.115E-03 -4.066E-01 -4.289E+01 8.138E+01
301577476 -4.236E+01 8.139E+01 -9.673E-03 -4.322E-01 -9.673E-03 -4.322E-01 -4.236E+01 8.139E+01
320556104 -4.183E+01 8.138E+01 -1.027E-02 -4.595E-01 -1.027E-02 -4.595E-01 -4.183E+01 8.138E+01
340729081 -4.130E+01 8.138E+01 -1.090E-02 -4.884E-01 -1.090E-02 -4.884E-01 -4.130E+01 8.138E+01
362171566 -4.077E+01 8.137E+01 -1.158E-02 -5.191E-01 -1.158E-02 -5.191E-01 -4.077E+01 8.137E+01
384963453 -4.024E+01 8.136E+01 -1.230E-02 -5.518E-01 -1.230E-02 -5.518E-01 -4.024E+01 8.136E+01
409189661 -3.971E+01 8.134E+01 -1.307E-02 -5.865E-01 -1.307E-02 -5.865E-01 -3.971E+01 8.134E+01
434940452 -3.918E+01 8.132E+01 -1.390E-02 -6.234E-01 -1.390E-02 -6.234E-01 -3.918E+01 8.132E+01
462311771 -3.865E+01 8.130E+01 -1.477E-02 -6.626E-01 -1.477E-02 -6.626E-01 -3.865E+01 8.130E+01
491405600 -3.812E+01 8.128E+01 -1.571E-02 -7.043E-01 -1.571E-02 -7.043E-01 -3.812E+01 8.128E+01
522330338 -3.759E+01 8.125E+01 -1.671E-02 -7.486E-01 -1.671E-02 -7.486E-01 -3.759E+01 8.125E+01
555201207 -3.706E+01 8.121E+01 -1.778E-02 -7.956E-01 -1.778E-02 -7.956E-01 -3.706E+01 8.121E+01
590140678 -3.653E+01 8.118E+01 -1.893E-02 -8.456E-01 -1.893E-02 -8.456E-01 -3.653E+01 8.118E+01
627278932 -3.601E+01 8.114E+01 -2.015E-02 -8.987E-01 -2.015E-02 -8.987E-01 -3.601E+01 8.114E+01
666754340 -3.548E+01 8.109E+01 -2.146E-02 -9.552E-01 -2.146E-02 -9.552E-01 -3.548E+01 8.109E+01
708713982 -3.495E+01 8.104E+01 -2.286E-02 -1.015E+00 -2.286E-02 -1.015E+00 -3.495E+01 8.104E+01
753314195 -3.442E+01 8.099E+01 -2.436E-02 -1.079E+00 -2.436E-02 -1.079E+00 -3.442E+01 8.099E+01
800721152 -3.389E+01 8.093E+01 -2.596E-02 -1.147E+00 -2.596E-02 -1.147E+00 -3.389E+01 8.093E+01
851111485 -3.336E+01 8.087E+01 -2.768E-02 -1.219E+00 -2.768E-02 -1.219E+00 -3.336E+01 8.087E+01
904672942 -3.283E+01 8.080E+01 -2.952E-02 -1.295E+00 -2.952E-02 -1.295E+00 -3.283E+01 8.080E+01
961605085 -3.231E+01 8.073E+01 -3.149E-02 -1.376E+00 -3.149E-02 -1.376E+00 -3.231E+01 8.073E+01
1022120035 -3.178E+01 8.065E+01 -3.361E-02 -1.463E+00 -3.361E-02 -1.463E+00 -3.178E+01 8.065E+01
1086443262 -3.125E+01 8.057E+01 -3.588E-02 -1.554E+00 -3.588E-02 -1.554E+00 -3.125E+01 8.057E+01
1154814427 -3.072E+01 8.047E+01 -3.831E-02 -1.652E+00 -3.831E-02 -1.652E+00 -3.072E+01 8.047E+01
1227488271 -3.020E+01 8.038E+01 -4.093E-02 -1.755E+00 -4.093E-02 -1.755E+00 -3.020E+01 8.038E+01
1304735566 -2.967E+01 8.027E+01 -4.374E-02 -1.865E+00 -4.374E-02 -1.865E+00 -2.967E+01 8.027E+01
1386844124 -2.914E+01 8.016E+01 -4.676E-02 -1.982E+00 -4.676E-02 -1.982E+00 -2.914E+01 8.016E+01
1474119872 -2.861E+01 8.004E+01 -5.001E-02 -2.106E+00 -5.001E-02 -2.106E+00 -2.861E+01 8.004E+01
1566887987 -2.809E+01 7.992E+01 -5.351E-02 -2.237E+00 -5.351E-02 -2.237E+00 -2.809E+01 7.992E+01
1665494109 -2.756E+01 7.978E+01 -5.728E-02 -2.377E+00 -5.728E-02 -2.377E+00 -2.756E+01 7.978E+01
1770305631 -2.704E+01 7.964E+01 -6.134E-02 -2.526E+00 -6.134E-02 -2.526E+00 -2.704E+01 7.964E+01
1881713067 -2.651E+01 7.948E+01 -6.571E-02 -2.683E+00 -6.571E-02 -2.683E+00 -2.651E+01 7.948E+01
2000131505 -2.599E+01 7.932E+01 -7.044E-02 -2.851E+00 -7.044E-02 -2.851E+00 -2.599E+01 7.932E+01
2126002157 -2.546E+01 7.915E+01 -7.553E-02 -3.029E+00 -7.553E-02 -3.029E+00 -2.546E+01 7.915E+01
2259793998 -2.494E+01 7.896E+01 -8.104E-02 -3.217E+00 -8.104E-02 -3.217E+00 -2.494E+01 7.896E+01
2402005518 -2.441E+01 7.876E+01 -8.699E-02 -3.418E+00 -8.699E-02 -3.418E+00 -2.441E+01 7.876E+01
2553166578 -2.389E+01 7.855E+01 -9.343E-02 -3.631E+00 -9.343E-02 -3.631E+00 -2.389E+01 7.855E+01
2713840383 -2.336E+01 7.833E+01 -1.004E-01 -3.856E+00 -1.004E-01 -3.856E+00 -2.336E+01 7.833E+01
2884625582 -2.284E+01 7.809E+01 -1.079E-01 -4.096E+00 -1.079E-01 -4.096E+00 -2.284E+01 7.809E+01
3066158496 -2.232E+01 7.784E+01 -1.161E-01 -4.350E+00 -1.161E-01 -4.350E+00 -2.232E+01 7.784E+01
3259115492 -2.180E+01 7.758E+01 -1.250E-01 -4.619E+00 -1.250E-01 -4.619E+00 -2.180E+01 7.758E+01
3464215500 -2.128E+01 7.729E+01 -1.346E-01 -4.905E+00 -1.346E-01 -4.905E+00 -2.128E+01 7.729E+01
3682222696 -2.076E+01 7.699E+01 -1.451E-01 -5.209E+00 -1.451E-01 -5.209E+00 -2.076E+01 7.699E+01
3913949344 -2.024E+01 7.667E+01 -1.565E-01 -5.530E+00 -1.565E-01 -5.530E+00 -2.024E+01 7.667E+01
4160258825 -1.972E+01 7.633E+01 -1.689E-01 -5.871E+00 -1.689E-01 -5.871E+00 -1.972E+01 7.633E+01
4422068854 -1.921E+01 7.597E+01 -1.823E-01 -6.232E+00 -1.823E-01 -6.232E+00 -1.921E+01 7.597E+01
4700354899 -1.869E+01 7.559E+01 -1.970E-01 -6.615E+00 -1.970E-01 -6.615E+00 -1.869E+01 7.559E+01
4996153816 -1.818E+01 7.519E+01 -2.130E-01 -7.020E+00 -2.130E-01 -7.020E+00 -1.818E+01 7.519E+01
5310567709 -1.766E+01 7.476E+01 -2.304E-01 -7.449E+00 -2.304E-01 -7.449E+00 -1.766E+01 7.476E+01
5644768043 -1.715E+01 7.431E+01 -2.494E-01 -7.904E+00 -2.494E-01 -7.904E+00 -1.715E+01 7.431E+01
6000000000 -1.664E+01 7.383E+01 -2.702E-01 -8.384E+00 -2.702E-01 -8.384E+00 -1.664E+01 7.383E+01
