!Murata Part Number:GRM155R71C104KA88
!These Parameters are Measured in Series Mode Connection
!       o--ll--o
!Port1            Port2
!       o------o
!Operation Temp=25[C], DC Bias Voltage=0[V]
!Freq. Start=30[kHz] Stop=6[GHz], 201[Steps]
# Hz S DB R 50
!Freq.[Hz] MagS11[dB] PhaseS11[DEG] MagS21[dB] PhaseS21[DEG] MagS12[dB] PhaseS12[DEG] MagS22[dB] PhaseS22[DEG]
30000 -6.227E+00 -5.979E+01 -1.266E+00 2.922E+01 -1.266E+00 2.922E+01 -6.227E+00 -5.979E+01
31888 -6.633E+00 -6.124E+01 -1.142E+00 2.777E+01 -1.142E+00 2.777E+01 -6.633E+00 -6.124E+01
33895 -7.050E+00 -6.265E+01 -1.029E+00 2.636E+01 -1.029E+00 2.636E+01 -7.050E+00 -6.265E+01
36028 -7.477E+00 -6.400E+01 -9.254E-01 2.501E+01 -9.254E-01 2.501E+01 -7.477E+00 -6.400E+01
38295 -7.913E+00 -6.530E+01 -8.318E-01 2.371E+01 -8.318E-01 2.371E+01 -7.913E+00 -6.530E+01
40705 -8.359E+00 -6.656E+01 -7.471E-01 2.245E+01 -7.471E-01 2.245E+01 -8.359E+00 -6.656E+01
43267 -8.812E+00 -6.775E+01 -6.705E-01 2.125E+01 -6.705E-01 2.125E+01 -8.812E+00 -6.775E+01
45989 -9.273E+00 -6.890E+01 -6.014E-01 2.011E+01 -6.014E-01 2.011E+01 -9.273E+00 -6.890E+01
48884 -9.741E+00 -7.000E+01 -5.392E-01 1.901E+01 -5.392E-01 1.901E+01 -9.741E+00 -7.000E+01
51960 -1.022E+01 -7.104E+01 -4.831E-01 1.797E+01 -4.831E-01 1.797E+01 -1.022E+01 -7.104E+01
55230 -1.069E+01 -7.204E+01 -4.328E-01 1.697E+01 -4.328E-01 1.697E+01 -1.069E+01 -7.204E+01
58705 -1.118E+01 -7.298E+01 -3.876E-01 1.602E+01 -3.876E-01 1.602E+01 -1.118E+01 -7.298E+01
62400 -1.167E+01 -7.388E+01 -3.471E-01 1.512E+01 -3.471E-01 1.512E+01 -1.167E+01 -7.388E+01
66327 -1.216E+01 -7.473E+01 -3.107E-01 1.427E+01 -3.107E-01 1.427E+01 -1.216E+01 -7.473E+01
70501 -1.266E+01 -7.554E+01 -2.782E-01 1.346E+01 -2.782E-01 1.346E+01 -1.266E+01 -7.554E+01
74937 -1.316E+01 -7.631E+01 -2.491E-01 1.269E+01 -2.491E-01 1.269E+01 -1.316E+01 -7.631E+01
79653 -1.367E+01 -7.703E+01 -2.230E-01 1.197E+01 -2.230E-01 1.197E+01 -1.367E+01 -7.703E+01
84666 -1.417E+01 -7.772E+01 -1.997E-01 1.128E+01 -1.997E-01 1.128E+01 -1.417E+01 -7.772E+01
89994 -1.468E+01 -7.837E+01 -1.789E-01 1.063E+01 -1.789E-01 1.063E+01 -1.468E+01 -7.837E+01
95658 -1.519E+01 -7.898E+01 -1.603E-01 1.001E+01 -1.603E-01 1.001E+01 -1.519E+01 -7.898E+01
101677 -1.571E+01 -7.956E+01 -1.436E-01 9.434E+00 -1.436E-01 9.434E+00 -1.571E+01 -7.956E+01
108076 -1.622E+01 -8.011E+01 -1.288E-01 8.886E+00 -1.288E-01 8.886E+00 -1.622E+01 -8.011E+01
114877 -1.674E+01 -8.062E+01 -1.155E-01 8.369E+00 -1.155E-01 8.369E+00 -1.674E+01 -8.062E+01
122107 -1.726E+01 -8.111E+01 -1.037E-01 7.881E+00 -1.037E-01 7.881E+00 -1.726E+01 -8.111E+01
129791 -1.778E+01 -8.157E+01 -9.307E-02 7.421E+00 -9.307E-02 7.421E+00 -1.778E+01 -8.157E+01
137959 -1.830E+01 -8.200E+01 -8.360E-02 6.987E+00 -8.360E-02 6.987E+00 -1.830E+01 -8.200E+01
146641 -1.882E+01 -8.241E+01 -7.515E-02 6.577E+00 -7.515E-02 6.577E+00 -1.882E+01 -8.241E+01
155869 -1.934E+01 -8.279E+01 -6.759E-02 6.192E+00 -6.759E-02 6.192E+00 -1.934E+01 -8.279E+01
165678 -1.987E+01 -8.315E+01 -6.084E-02 5.828E+00 -6.084E-02 5.828E+00 -1.987E+01 -8.315E+01
176105 -2.039E+01 -8.349E+01 -5.480E-02 5.486E+00 -5.480E-02 5.486E+00 -2.039E+01 -8.349E+01
187187 -2.091E+01 -8.381E+01 -4.940E-02 5.164E+00 -4.940E-02 5.164E+00 -2.091E+01 -8.381E+01
198967 -2.144E+01 -8.411E+01 -4.456E-02 4.860E+00 -4.456E-02 4.860E+00 -2.144E+01 -8.411E+01
211488 -2.197E+01 -8.439E+01 -4.024E-02 4.574E+00 -4.024E-02 4.574E+00 -2.197E+01 -8.439E+01
224797 -2.249E+01 -8.466E+01 -3.636E-02 4.304E+00 -3.636E-02 4.304E+00 -2.249E+01 -8.466E+01
238944 -2.302E+01 -8.491E+01 -3.289E-02 4.051E+00 -3.289E-02 4.051E+00 -2.302E+01 -8.491E+01
253981 -2.355E+01 -8.514E+01 -2.978E-02 3.812E+00 -2.978E-02 3.812E+00 -2.355E+01 -8.514E+01
269964 -2.407E+01 -8.537E+01 -2.699E-02 3.587E+00 -2.699E-02 3.587E+00 -2.407E+01 -8.537E+01
286954 -2.460E+01 -8.557E+01 -2.449E-02 3.375E+00 -2.449E-02 3.375E+00 -2.460E+01 -8.557E+01
305012 -2.513E+01 -8.577E+01 -2.224E-02 3.176E+00 -2.224E-02 3.176E+00 -2.513E+01 -8.577E+01
324207 -2.566E+01 -8.595E+01 -2.022E-02 2.988E+00 -2.022E-02 2.988E+00 -2.566E+01 -8.595E+01
344610 -2.618E+01 -8.612E+01 -1.841E-02 2.812E+00 -1.841E-02 2.812E+00 -2.618E+01 -8.612E+01
366296 -2.671E+01 -8.628E+01 -1.678E-02 2.646E+00 -1.678E-02 2.646E+00 -2.671E+01 -8.628E+01
389348 -2.724E+01 -8.643E+01 -1.531E-02 2.489E+00 -1.531E-02 2.489E+00 -2.724E+01 -8.643E+01
413850 -2.777E+01 -8.657E+01 -1.398E-02 2.342E+00 -1.398E-02 2.342E+00 -2.777E+01 -8.657E+01
439894 -2.830E+01 -8.671E+01 -1.279E-02 2.204E+00 -1.279E-02 2.204E+00 -2.830E+01 -8.671E+01
467577 -2.883E+01 -8.683E+01 -1.172E-02 2.073E+00 -1.172E-02 2.073E+00 -2.883E+01 -8.683E+01
497002 -2.936E+01 -8.694E+01 -1.074E-02 1.951E+00 -1.074E-02 1.951E+00 -2.936E+01 -8.694E+01
528279 -2.989E+01 -8.705E+01 -9.867E-03 1.835E+00 -9.867E-03 1.835E+00 -2.989E+01 -8.705E+01
561524 -3.042E+01 -8.715E+01 -9.075E-03 1.726E+00 -9.075E-03 1.726E+00 -3.042E+01 -8.715E+01
596862 -3.095E+01 -8.724E+01 -8.357E-03 1.624E+00 -8.357E-03 1.624E+00 -3.095E+01 -8.724E+01
634423 -3.148E+01 -8.733E+01 -7.708E-03 1.528E+00 -7.708E-03 1.528E+00 -3.148E+01 -8.733E+01
674348 -3.201E+01 -8.741E+01 -7.119E-03 1.438E+00 -7.119E-03 1.438E+00 -3.201E+01 -8.741E+01
716785 -3.254E+01 -8.748E+01 -6.585E-03 1.352E+00 -6.585E-03 1.352E+00 -3.254E+01 -8.748E+01
761893 -3.307E+01 -8.755E+01 -6.101E-03 1.272E+00 -6.101E-03 1.272E+00 -3.307E+01 -8.755E+01
809840 -3.360E+01 -8.761E+01 -5.660E-03 1.197E+00 -5.660E-03 1.197E+00 -3.360E+01 -8.761E+01
860804 -3.413E+01 -8.767E+01 -5.260E-03 1.126E+00 -5.260E-03 1.126E+00 -3.413E+01 -8.767E+01
914976 -3.466E+01 -8.772E+01 -4.896E-03 1.059E+00 -4.896E-03 1.059E+00 -3.466E+01 -8.772E+01
972556 -3.519E+01 -8.777E+01 -4.564E-03 9.963E-01 -4.564E-03 9.963E-01 -3.519E+01 -8.777E+01
1033761 -3.572E+01 -8.781E+01 -4.262E-03 9.371E-01 -4.262E-03 9.371E-01 -3.572E+01 -8.781E+01
1098816 -3.626E+01 -8.785E+01 -3.986E-03 8.815E-01 -3.986E-03 8.815E-01 -3.626E+01 -8.785E+01
1167966 -3.679E+01 -8.788E+01 -3.735E-03 8.291E-01 -3.735E-03 8.291E-01 -3.679E+01 -8.788E+01
1241468 -3.732E+01 -8.791E+01 -3.505E-03 7.798E-01 -3.505E-03 7.798E-01 -3.732E+01 -8.791E+01
1319595 -3.785E+01 -8.794E+01 -3.295E-03 7.334E-01 -3.295E-03 7.334E-01 -3.785E+01 -8.794E+01
1402638 -3.839E+01 -8.796E+01 -3.103E-03 6.898E-01 -3.103E-03 6.898E-01 -3.839E+01 -8.796E+01
1490908 -3.892E+01 -8.797E+01 -2.927E-03 6.487E-01 -2.927E-03 6.487E-01 -3.892E+01 -8.797E+01
1584733 -3.945E+01 -8.798E+01 -2.766E-03 6.100E-01 -2.766E-03 6.100E-01 -3.945E+01 -8.798E+01
1684462 -3.999E+01 -8.799E+01 -2.619E-03 5.736E-01 -2.619E-03 5.736E-01 -3.999E+01 -8.799E+01
1790467 -4.052E+01 -8.799E+01 -2.484E-03 5.394E-01 -2.484E-03 5.394E-01 -4.052E+01 -8.799E+01
1903143 -4.106E+01 -8.799E+01 -2.360E-03 5.071E-01 -2.360E-03 5.071E-01 -4.106E+01 -8.799E+01
2022910 -4.159E+01 -8.798E+01 -2.246E-03 4.768E-01 -2.246E-03 4.768E-01 -4.159E+01 -8.798E+01
2150214 -4.213E+01 -8.797E+01 -2.142E-03 4.482E-01 -2.142E-03 4.482E-01 -4.213E+01 -8.797E+01
2285530 -4.267E+01 -8.795E+01 -2.047E-03 4.212E-01 -2.047E-03 4.212E-01 -4.267E+01 -8.795E+01
2429361 -4.321E+01 -8.793E+01 -1.960E-03 3.959E-01 -1.960E-03 3.959E-01 -4.321E+01 -8.793E+01
2582244 -4.375E+01 -8.790E+01 -1.880E-03 3.720E-01 -1.880E-03 3.720E-01 -4.375E+01 -8.790E+01
2744747 -4.429E+01 -8.787E+01 -1.807E-03 3.495E-01 -1.807E-03 3.495E-01 -4.429E+01 -8.787E+01
2917477 -4.483E+01 -8.783E+01 -1.740E-03 3.283E-01 -1.740E-03 3.283E-01 -4.483E+01 -8.783E+01
3101078 -4.538E+01 -8.779E+01 -1.679E-03 3.084E-01 -1.679E-03 3.084E-01 -4.538E+01 -8.779E+01
3296232 -4.592E+01 -8.774E+01 -1.623E-03 2.895E-01 -1.623E-03 2.895E-01 -4.592E+01 -8.774E+01
3503668 -4.647E+01 -8.768E+01 -1.572E-03 2.718E-01 -1.572E-03 2.718E-01 -4.647E+01 -8.768E+01
3724158 -4.702E+01 -8.761E+01 -1.526E-03 2.551E-01 -1.526E-03 2.551E-01 -4.702E+01 -8.761E+01
3958524 -4.758E+01 -8.754E+01 -1.485E-03 2.393E-01 -1.485E-03 2.393E-01 -4.758E+01 -8.754E+01
4207638 -4.813E+01 -8.745E+01 -1.447E-03 2.244E-01 -1.447E-03 2.244E-01 -4.813E+01 -8.745E+01
4472430 -4.870E+01 -8.736E+01 -1.414E-03 2.103E-01 -1.414E-03 2.103E-01 -4.870E+01 -8.736E+01
4753885 -4.926E+01 -8.725E+01 -1.384E-03 1.971E-01 -1.384E-03 1.971E-01 -4.926E+01 -8.725E+01
5053053 -4.983E+01 -8.713E+01 -1.357E-03 1.845E-01 -1.357E-03 1.845E-01 -4.983E+01 -8.713E+01
5371048 -5.041E+01 -8.700E+01 -1.334E-03 1.727E-01 -1.334E-03 1.727E-01 -5.041E+01 -8.700E+01
5709054 -5.099E+01 -8.685E+01 -1.314E-03 1.615E-01 -1.314E-03 1.615E-01 -5.099E+01 -8.685E+01
6068332 -5.158E+01 -8.668E+01 -1.297E-03 1.509E-01 -1.297E-03 1.509E-01 -5.158E+01 -8.668E+01
6450219 -5.217E+01 -8.649E+01 -1.282E-03 1.408E-01 -1.282E-03 1.408E-01 -5.217E+01 -8.649E+01
6856139 -5.278E+01 -8.628E+01 -1.271E-03 1.313E-01 -1.271E-03 1.313E-01 -5.278E+01 -8.628E+01
7287604 -5.339E+01 -8.604E+01 -1.262E-03 1.223E-01 -1.262E-03 1.223E-01 -5.339E+01 -8.604E+01
7746221 -5.402E+01 -8.578E+01 -1.256E-03 1.137E-01 -1.256E-03 1.137E-01 -5.402E+01 -8.578E+01
8233700 -5.466E+01 -8.547E+01 -1.253E-03 1.056E-01 -1.253E-03 1.056E-01 -5.466E+01 -8.547E+01
8751857 -5.532E+01 -8.513E+01 -1.252E-03 9.784E-02 -1.252E-03 9.784E-02 -5.532E+01 -8.513E+01
9302622 -5.600E+01 -8.473E+01 -1.254E-03 9.045E-02 -1.254E-03 9.045E-02 -5.600E+01 -8.473E+01
9888047 -5.670E+01 -8.428E+01 -1.258E-03 8.339E-02 -1.258E-03 8.339E-02 -5.670E+01 -8.428E+01
10510313 -5.742E+01 -8.375E+01 -1.264E-03 7.665E-02 -1.264E-03 7.665E-02 -5.742E+01 -8.375E+01
11171740 -5.817E+01 -8.314E+01 -1.274E-03 7.020E-02 -1.274E-03 7.020E-02 -5.817E+01 -8.314E+01
11874790 -5.896E+01 -8.242E+01 -1.285E-03 6.400E-02 -1.285E-03 6.400E-02 -5.896E+01 -8.242E+01
12622085 -5.979E+01 -8.157E+01 -1.300E-03 5.805E-02 -1.300E-03 5.805E-02 -5.979E+01 -8.157E+01
13416408 -6.067E+01 -8.055E+01 -1.317E-03 5.231E-02 -1.317E-03 5.231E-02 -6.067E+01 -8.055E+01
14260718 -6.161E+01 -7.930E+01 -1.336E-03 4.676E-02 -1.336E-03 4.676E-02 -6.161E+01 -7.930E+01
15158162 -6.263E+01 -7.776E+01 -1.359E-03 4.139E-02 -1.359E-03 4.139E-02 -6.263E+01 -7.776E+01
16112083 -6.373E+01 -7.582E+01 -1.384E-03 3.618E-02 -1.384E-03 3.618E-02 -6.373E+01 -7.582E+01
17126036 -6.494E+01 -7.331E+01 -1.412E-03 3.109E-02 -1.412E-03 3.109E-02 -6.494E+01 -7.331E+01
18203798 -6.628E+01 -6.997E+01 -1.443E-03 2.613E-02 -1.443E-03 2.613E-02 -6.628E+01 -6.997E+01
19349384 -6.778E+01 -6.537E+01 -1.477E-03 2.126E-02 -1.477E-03 2.126E-02 -6.778E+01 -6.537E+01
20567064 -6.947E+01 -5.875E+01 -1.514E-03 1.647E-02 -1.514E-03 1.647E-02 -6.947E+01 -5.875E+01
21861374 -7.130E+01 -4.885E+01 -1.555E-03 1.174E-02 -1.555E-03 1.174E-02 -7.130E+01 -4.885E+01
23237136 -7.309E+01 -3.378E+01 -1.600E-03 7.060E-03 -1.600E-03 7.060E-03 -7.309E+01 -3.378E+01
24699477 -7.423E+01 -1.247E+01 -1.648E-03 2.403E-03 -1.648E-03 2.403E-03 -7.423E+01 -1.247E+01
26253844 -7.400E+01 1.133E+01 -1.699E-03 -2.245E-03 -1.699E-03 -2.245E-03 -7.400E+01 1.133E+01
27906030 -7.257E+01 3.079E+01 -1.755E-03 -6.902E-03 -1.755E-03 -6.902E-03 -7.257E+01 3.079E+01
29662189 -7.073E+01 4.404E+01 -1.816E-03 -1.158E-02 -1.816E-03 -1.158E-02 -7.073E+01 4.404E+01
31528866 -6.893E+01 5.274E+01 -1.880E-03 -1.631E-02 -1.880E-03 -1.631E-02 -6.893E+01 5.274E+01
33513015 -6.731E+01 5.862E+01 -1.950E-03 -2.110E-02 -1.950E-03 -2.110E-02 -6.731E+01 5.862E+01
35622029 -6.586E+01 6.277E+01 -2.024E-03 -2.596E-02 -2.024E-03 -2.596E-02 -6.586E+01 6.277E+01
37863766 -6.456E+01 6.581E+01 -2.104E-03 -3.092E-02 -2.104E-03 -3.092E-02 -6.456E+01 6.581E+01
40246577 -6.339E+01 6.812E+01 -2.189E-03 -3.600E-02 -2.189E-03 -3.600E-02 -6.339E+01 6.812E+01
42779342 -6.232E+01 6.993E+01 -2.280E-03 -4.121E-02 -2.280E-03 -4.121E-02 -6.232E+01 6.993E+01
45471497 -6.133E+01 7.136E+01 -2.378E-03 -4.657E-02 -2.378E-03 -4.657E-02 -6.133E+01 7.136E+01
48333072 -6.042E+01 7.253E+01 -2.482E-03 -5.211E-02 -2.482E-03 -5.211E-02 -6.042E+01 7.253E+01
51374730 -5.956E+01 7.350E+01 -2.593E-03 -5.784E-02 -2.593E-03 -5.784E-02 -5.956E+01 7.350E+01
54607803 -5.874E+01 7.431E+01 -2.711E-03 -6.379E-02 -2.711E-03 -6.379E-02 -5.874E+01 7.431E+01
58044337 -5.797E+01 7.499E+01 -2.838E-03 -6.997E-02 -2.838E-03 -6.997E-02 -5.797E+01 7.499E+01
61697136 -5.722E+01 7.557E+01 -2.972E-03 -7.641E-02 -2.972E-03 -7.641E-02 -5.722E+01 7.557E+01
65579810 -5.651E+01 7.607E+01 -3.116E-03 -8.314E-02 -3.116E-03 -8.314E-02 -5.651E+01 7.607E+01
69706825 -5.582E+01 7.651E+01 -3.269E-03 -9.018E-02 -3.269E-03 -9.018E-02 -5.582E+01 7.651E+01
74093558 -5.515E+01 7.689E+01 -3.432E-03 -9.755E-02 -3.432E-03 -9.755E-02 -5.515E+01 7.689E+01
78756354 -5.450E+01 7.722E+01 -3.606E-03 -1.053E-01 -3.606E-03 -1.053E-01 -5.450E+01 7.722E+01
83712585 -5.386E+01 7.751E+01 -3.791E-03 -1.134E-01 -3.791E-03 -1.134E-01 -5.386E+01 7.751E+01
88980717 -5.324E+01 7.777E+01 -3.988E-03 -1.220E-01 -3.988E-03 -1.220E-01 -5.324E+01 7.777E+01
94580379 -5.263E+01 7.800E+01 -4.198E-03 -1.310E-01 -4.198E-03 -1.310E-01 -5.263E+01 7.800E+01
100532435 -5.203E+01 7.820E+01 -4.422E-03 -1.405E-01 -4.422E-03 -1.405E-01 -5.203E+01 7.820E+01
106859061 -5.144E+01 7.838E+01 -4.660E-03 -1.505E-01 -4.660E-03 -1.505E-01 -5.144E+01 7.838E+01
113583828 -5.085E+01 7.854E+01 -4.913E-03 -1.611E-01 -4.913E-03 -1.611E-01 -5.085E+01 7.854E+01
120731793 -5.028E+01 7.869E+01 -5.183E-03 -1.722E-01 -5.183E-03 -1.722E-01 -5.028E+01 7.869E+01
128329589 -4.970E+01 7.882E+01 -5.470E-03 -1.840E-01 -5.470E-03 -1.840E-01 -4.970E+01 7.882E+01
136405522 -4.914E+01 7.893E+01 -5.776E-03 -1.965E-01 -5.776E-03 -1.965E-01 -4.914E+01 7.893E+01
144989683 -4.857E+01 7.903E+01 -6.102E-03 -2.098E-01 -6.102E-03 -2.098E-01 -4.857E+01 7.903E+01
154114056 -4.802E+01 7.913E+01 -6.448E-03 -2.238E-01 -6.448E-03 -2.238E-01 -4.802E+01 7.913E+01
163812637 -4.746E+01 7.921E+01 -6.818E-03 -2.386E-01 -6.818E-03 -2.386E-01 -4.746E+01 7.921E+01
174121561 -4.691E+01 7.928E+01 -7.211E-03 -2.544E-01 -7.211E-03 -2.544E-01 -4.691E+01 7.928E+01
185079238 -4.636E+01 7.935E+01 -7.629E-03 -2.710E-01 -7.629E-03 -2.710E-01 -4.636E+01 7.935E+01
196726494 -4.581E+01 7.940E+01 -8.075E-03 -2.887E-01 -8.075E-03 -2.887E-01 -4.581E+01 7.940E+01
209106726 -4.527E+01 7.945E+01 -8.550E-03 -3.075E-01 -8.550E-03 -3.075E-01 -4.527E+01 7.945E+01
222266060 -4.472E+01 7.949E+01 -9.056E-03 -3.274E-01 -9.056E-03 -3.274E-01 -4.472E+01 7.949E+01
236253527 -4.418E+01 7.953E+01 -9.595E-03 -3.485E-01 -9.595E-03 -3.485E-01 -4.418E+01 7.953E+01
251121243 -4.364E+01 7.956E+01 -1.017E-02 -3.709E-01 -1.017E-02 -3.709E-01 -4.364E+01 7.956E+01
266924601 -4.310E+01 7.959E+01 -1.078E-02 -3.947E-01 -1.078E-02 -3.947E-01 -4.310E+01 7.959E+01
283722483 -4.257E+01 7.961E+01 -1.143E-02 -4.199E-01 -1.143E-02 -4.199E-01 -4.257E+01 7.961E+01
301577476 -4.203E+01 7.962E+01 -1.213E-02 -4.467E-01 -1.213E-02 -4.467E-01 -4.203E+01 7.962E+01
320556104 -4.150E+01 7.963E+01 -1.287E-02 -4.752E-01 -1.287E-02 -4.752E-01 -4.150E+01 7.963E+01
340729081 -4.096E+01 7.964E+01 -1.366E-02 -5.054E-01 -1.366E-02 -5.054E-01 -4.096E+01 7.964E+01
362171566 -4.043E+01 7.964E+01 -1.450E-02 -5.375E-01 -1.450E-02 -5.375E-01 -4.043E+01 7.964E+01
384963453 -3.989E+01 7.964E+01 -1.540E-02 -5.716E-01 -1.540E-02 -5.716E-01 -3.989E+01 7.964E+01
409189661 -3.936E+01 7.963E+01 -1.635E-02 -6.078E-01 -1.635E-02 -6.078E-01 -3.936E+01 7.963E+01
434940452 -3.883E+01 7.962E+01 -1.737E-02 -6.463E-01 -1.737E-02 -6.463E-01 -3.883E+01 7.962E+01
462311771 -3.830E+01 7.961E+01 -1.846E-02 -6.871E-01 -1.846E-02 -6.871E-01 -3.830E+01 7.961E+01
491405600 -3.777E+01 7.959E+01 -1.963E-02 -7.306E-01 -1.963E-02 -7.306E-01 -3.777E+01 7.959E+01
522330338 -3.723E+01 7.956E+01 -2.087E-02 -7.767E-01 -2.087E-02 -7.767E-01 -3.723E+01 7.956E+01
555201207 -3.670E+01 7.953E+01 -2.219E-02 -8.256E-01 -2.219E-02 -8.256E-01 -3.670E+01 7.953E+01
590140678 -3.617E+01 7.950E+01 -2.361E-02 -8.777E-01 -2.361E-02 -8.777E-01 -3.617E+01 7.950E+01
627278932 -3.564E+01 7.946E+01 -2.512E-02 -9.329E-01 -2.512E-02 -9.329E-01 -3.564E+01 7.946E+01
666754340 -3.511E+01 7.942E+01 -2.674E-02 -9.917E-01 -2.674E-02 -9.917E-01 -3.511E+01 7.942E+01
708713982 -3.458E+01 7.937E+01 -2.847E-02 -1.054E+00 -2.847E-02 -1.054E+00 -3.458E+01 7.937E+01
753314195 -3.405E+01 7.932E+01 -3.031E-02 -1.120E+00 -3.031E-02 -1.120E+00 -3.405E+01 7.932E+01
800721152 -3.353E+01 7.926E+01 -3.229E-02 -1.191E+00 -3.229E-02 -1.191E+00 -3.353E+01 7.926E+01
851111485 -3.300E+01 7.920E+01 -3.440E-02 -1.266E+00 -3.440E-02 -1.266E+00 -3.300E+01 7.920E+01
904672942 -3.247E+01 7.913E+01 -3.666E-02 -1.345E+00 -3.666E-02 -1.345E+00 -3.247E+01 7.913E+01
961605085 -3.194E+01 7.906E+01 -3.909E-02 -1.429E+00 -3.909E-02 -1.429E+00 -3.194E+01 7.906E+01
1022120035 -3.141E+01 7.898E+01 -4.168E-02 -1.519E+00 -4.168E-02 -1.519E+00 -3.141E+01 7.898E+01
1086443262 -3.088E+01 7.890E+01 -4.446E-02 -1.614E+00 -4.446E-02 -1.614E+00 -3.088E+01 7.890E+01
1154814427 -3.036E+01 7.880E+01 -4.744E-02 -1.715E+00 -4.744E-02 -1.715E+00 -3.036E+01 7.880E+01
1227488271 -2.983E+01 7.870E+01 -5.064E-02 -1.823E+00 -5.064E-02 -1.823E+00 -2.983E+01 7.870E+01
1304735566 -2.930E+01 7.860E+01 -5.407E-02 -1.937E+00 -5.407E-02 -1.937E+00 -2.930E+01 7.860E+01
1386844124 -2.878E+01 7.848E+01 -5.775E-02 -2.058E+00 -5.775E-02 -2.058E+00 -2.878E+01 7.848E+01
1474119872 -2.825E+01 7.836E+01 -6.171E-02 -2.187E+00 -6.171E-02 -2.187E+00 -2.825E+01 7.836E+01
1566887987 -2.772E+01 7.823E+01 -6.596E-02 -2.323E+00 -6.596E-02 -2.323E+00 -2.772E+01 7.823E+01
1665494109 -2.720E+01 7.809E+01 -7.052E-02 -2.468E+00 -7.052E-02 -2.468E+00 -2.720E+01 7.809E+01
1770305631 -2.667E+01 7.795E+01 -7.544E-02 -2.622E+00 -7.544E-02 -2.622E+00 -2.667E+01 7.795E+01
1881713067 -2.615E+01 7.779E+01 -8.073E-02 -2.786E+00 -8.073E-02 -2.786E+00 -2.615E+01 7.779E+01
2000131505 -2.562E+01 7.762E+01 -8.643E-02 -2.959E+00 -8.643E-02 -2.959E+00 -2.562E+01 7.762E+01
2126002157 -2.510E+01 7.744E+01 -9.256E-02 -3.144E+00 -9.256E-02 -3.144E+00 -2.510E+01 7.744E+01
2259793998 -2.458E+01 7.725E+01 -9.918E-02 -3.339E+00 -9.918E-02 -3.339E+00 -2.458E+01 7.725E+01
2402005518 -2.405E+01 7.705E+01 -1.063E-01 -3.547E+00 -1.063E-01 -3.547E+00 -2.405E+01 7.705E+01
2553166578 -2.353E+01 7.683E+01 -1.140E-01 -3.767E+00 -1.140E-01 -3.767E+00 -2.353E+01 7.683E+01
2713840383 -2.301E+01 7.660E+01 -1.224E-01 -4.001E+00 -1.224E-01 -4.001E+00 -2.301E+01 7.660E+01
2884625582 -2.249E+01 7.635E+01 -1.313E-01 -4.249E+00 -1.313E-01 -4.249E+00 -2.249E+01 7.635E+01
3066158496 -2.197E+01 7.609E+01 -1.411E-01 -4.511E+00 -1.411E-01 -4.511E+00 -2.197E+01 7.609E+01
3259115492 -2.145E+01 7.582E+01 -1.516E-01 -4.790E+00 -1.516E-01 -4.790E+00 -2.145E+01 7.582E+01
3464215500 -2.093E+01 7.553E+01 -1.630E-01 -5.086E+00 -1.630E-01 -5.086E+00 -2.093E+01 7.553E+01
3682222696 -2.041E+01 7.522E+01 -1.754E-01 -5.399E+00 -1.754E-01 -5.399E+00 -2.041E+01 7.522E+01
3913949344 -1.990E+01 7.489E+01 -1.888E-01 -5.731E+00 -1.888E-01 -5.731E+00 -1.990E+01 7.489E+01
4160258825 -1.938E+01 7.454E+01 -2.033E-01 -6.083E+00 -2.033E-01 -6.083E+00 -1.938E+01 7.454E+01
4422068854 -1.887E+01 7.417E+01 -2.191E-01 -6.455E+00 -2.191E-01 -6.455E+00 -1.887E+01 7.417E+01
4700354899 -1.835E+01 7.377E+01 -2.362E-01 -6.850E+00 -2.362E-01 -6.850E+00 -1.835E+01 7.377E+01
4996153816 -1.784E+01 7.336E+01 -2.549E-01 -7.268E+00 -2.549E-01 -7.268E+00 -1.784E+01 7.336E+01
5310567709 -1.733E+01 7.292E+01 -2.751E-01 -7.710E+00 -2.751E-01 -7.710E+00 -1.733E+01 7.292E+01
5644768043 -1.682E+01 7.245E+01 -2.972E-01 -8.177E+00 -2.972E-01 -8.177E+00 -1.682E+01 7.245E+01
6000000000 -1.632E+01 7.196E+01 -3.212E-01 -8.671E+00 -3.212E-01 -8.671E+00 -1.632E+01 7.196E+01
