!Murata Part Number:GRM21BR60J226ME39
!These Parameters are Measured in Series Mode Connection
!       o--ll--o
!Port1            Port2
!       o------o
!Operation Temp=25[C], DC Bias Voltage=0[V]
!Freq. Start=30[kHz] Stop=6[GHz], 201[Steps]
# Hz S DB R 50
!Freq.[Hz] MagS11[dB] PhaseS11[DEG] MagS21[dB] PhaseS21[DEG] MagS12[dB] PhaseS12[DEG] MagS22[dB] PhaseS22[DEG]
30000 -4.660E+01 -8.654E+01 -2.354E-03 2.675E-01 -2.354E-03 2.675E-01 -4.660E+01 -8.654E+01
31888 -4.713E+01 -8.655E+01 -2.215E-03 2.516E-01 -2.215E-03 2.516E-01 -4.713E+01 -8.655E+01
33895 -4.766E+01 -8.656E+01 -2.084E-03 2.367E-01 -2.084E-03 2.367E-01 -4.766E+01 -8.656E+01
36028 -4.819E+01 -8.656E+01 -1.962E-03 2.227E-01 -1.962E-03 2.227E-01 -4.819E+01 -8.656E+01
38295 -4.872E+01 -8.657E+01 -1.847E-03 2.095E-01 -1.847E-03 2.095E-01 -4.872E+01 -8.657E+01
40705 -4.925E+01 -8.657E+01 -1.740E-03 1.971E-01 -1.740E-03 1.971E-01 -4.925E+01 -8.657E+01
43267 -4.979E+01 -8.657E+01 -1.640E-03 1.854E-01 -1.640E-03 1.854E-01 -4.979E+01 -8.657E+01
45989 -5.032E+01 -8.657E+01 -1.545E-03 1.744E-01 -1.545E-03 1.744E-01 -5.032E+01 -8.657E+01
48884 -5.085E+01 -8.657E+01 -1.457E-03 1.641E-01 -1.457E-03 1.641E-01 -5.085E+01 -8.657E+01
51960 -5.138E+01 -8.656E+01 -1.374E-03 1.544E-01 -1.374E-03 1.544E-01 -5.138E+01 -8.656E+01
55230 -5.191E+01 -8.656E+01 -1.296E-03 1.452E-01 -1.296E-03 1.452E-01 -5.191E+01 -8.656E+01
58705 -5.244E+01 -8.655E+01 -1.223E-03 1.366E-01 -1.223E-03 1.366E-01 -5.244E+01 -8.655E+01
62400 -5.297E+01 -8.654E+01 -1.155E-03 1.285E-01 -1.155E-03 1.285E-01 -5.297E+01 -8.654E+01
66327 -5.350E+01 -8.653E+01 -1.091E-03 1.209E-01 -1.091E-03 1.209E-01 -5.350E+01 -8.653E+01
70501 -5.403E+01 -8.652E+01 -1.031E-03 1.137E-01 -1.031E-03 1.137E-01 -5.403E+01 -8.652E+01
74937 -5.456E+01 -8.651E+01 -9.742E-04 1.070E-01 -9.742E-04 1.070E-01 -5.456E+01 -8.651E+01
79653 -5.509E+01 -8.649E+01 -9.212E-04 1.006E-01 -9.212E-04 1.006E-01 -5.509E+01 -8.649E+01
84666 -5.562E+01 -8.648E+01 -8.714E-04 9.467E-02 -8.714E-04 9.467E-02 -5.562E+01 -8.648E+01
89994 -5.615E+01 -8.646E+01 -8.247E-04 8.905E-02 -8.247E-04 8.905E-02 -5.615E+01 -8.646E+01
95658 -5.669E+01 -8.644E+01 -7.809E-04 8.376E-02 -7.809E-04 8.376E-02 -5.669E+01 -8.644E+01
101677 -5.722E+01 -8.642E+01 -7.398E-04 7.878E-02 -7.398E-04 7.878E-02 -5.722E+01 -8.642E+01
108076 -5.775E+01 -8.639E+01 -7.011E-04 7.410E-02 -7.011E-04 7.410E-02 -5.775E+01 -8.639E+01
114877 -5.828E+01 -8.636E+01 -6.649E-04 6.969E-02 -6.649E-04 6.969E-02 -5.828E+01 -8.636E+01
122107 -5.882E+01 -8.633E+01 -6.308E-04 6.554E-02 -6.308E-04 6.554E-02 -5.882E+01 -8.633E+01
129791 -5.935E+01 -8.630E+01 -5.989E-04 6.164E-02 -5.989E-04 6.164E-02 -5.935E+01 -8.630E+01
137959 -5.988E+01 -8.627E+01 -5.689E-04 5.796E-02 -5.689E-04 5.796E-02 -5.988E+01 -8.627E+01
146641 -6.042E+01 -8.623E+01 -5.408E-04 5.450E-02 -5.408E-04 5.450E-02 -6.042E+01 -8.623E+01
155869 -6.095E+01 -8.619E+01 -5.144E-04 5.125E-02 -5.144E-04 5.125E-02 -6.095E+01 -8.619E+01
165678 -6.149E+01 -8.614E+01 -4.897E-04 4.818E-02 -4.897E-04 4.818E-02 -6.149E+01 -8.614E+01
176105 -6.202E+01 -8.609E+01 -4.664E-04 4.530E-02 -4.664E-04 4.530E-02 -6.202E+01 -8.609E+01
187187 -6.256E+01 -8.604E+01 -4.447E-04 4.258E-02 -4.447E-04 4.258E-02 -6.256E+01 -8.604E+01
198967 -6.309E+01 -8.598E+01 -4.242E-04 4.003E-02 -4.242E-04 4.003E-02 -6.309E+01 -8.598E+01
211488 -6.363E+01 -8.592E+01 -4.051E-04 3.762E-02 -4.051E-04 3.762E-02 -6.363E+01 -8.592E+01
224797 -6.417E+01 -8.585E+01 -3.872E-04 3.535E-02 -3.872E-04 3.535E-02 -6.417E+01 -8.585E+01
238944 -6.471E+01 -8.578E+01 -3.704E-04 3.321E-02 -3.704E-04 3.321E-02 -6.471E+01 -8.578E+01
253981 -6.526E+01 -8.570E+01 -3.547E-04 3.120E-02 -3.547E-04 3.120E-02 -6.526E+01 -8.570E+01
269964 -6.580E+01 -8.561E+01 -3.400E-04 2.930E-02 -3.400E-04 2.930E-02 -6.580E+01 -8.561E+01
286954 -6.634E+01 -8.551E+01 -3.262E-04 2.752E-02 -3.262E-04 2.752E-02 -6.634E+01 -8.551E+01
305012 -6.689E+01 -8.541E+01 -3.134E-04 2.583E-02 -3.134E-04 2.583E-02 -6.689E+01 -8.541E+01
324207 -6.744E+01 -8.530E+01 -3.014E-04 2.424E-02 -3.014E-04 2.424E-02 -6.744E+01 -8.530E+01
344610 -6.799E+01 -8.518E+01 -2.902E-04 2.274E-02 -2.902E-04 2.274E-02 -6.799E+01 -8.518E+01
366296 -6.855E+01 -8.504E+01 -2.798E-04 2.133E-02 -2.798E-04 2.133E-02 -6.855E+01 -8.504E+01
389348 -6.911E+01 -8.490E+01 -2.701E-04 2.000E-02 -2.701E-04 2.000E-02 -6.911E+01 -8.490E+01
413850 -6.967E+01 -8.474E+01 -2.611E-04 1.874E-02 -2.611E-04 1.874E-02 -6.967E+01 -8.474E+01
439894 -7.024E+01 -8.456E+01 -2.527E-04 1.755E-02 -2.527E-04 1.755E-02 -7.024E+01 -8.456E+01
467577 -7.081E+01 -8.437E+01 -2.450E-04 1.642E-02 -2.450E-04 1.642E-02 -7.081E+01 -8.437E+01
497002 -7.139E+01 -8.416E+01 -2.379E-04 1.536E-02 -2.379E-04 1.536E-02 -7.139E+01 -8.416E+01
528279 -7.197E+01 -8.392E+01 -2.313E-04 1.435E-02 -2.313E-04 1.435E-02 -7.197E+01 -8.392E+01
561524 -7.257E+01 -8.367E+01 -2.253E-04 1.340E-02 -2.253E-04 1.340E-02 -7.257E+01 -8.367E+01
596862 -7.317E+01 -8.338E+01 -2.198E-04 1.250E-02 -2.198E-04 1.250E-02 -7.317E+01 -8.338E+01
634423 -7.378E+01 -8.306E+01 -2.148E-04 1.164E-02 -2.148E-04 1.164E-02 -7.378E+01 -8.306E+01
674348 -7.440E+01 -8.270E+01 -2.103E-04 1.083E-02 -2.103E-04 1.083E-02 -7.440E+01 -8.270E+01
716785 -7.503E+01 -8.229E+01 -2.062E-04 1.006E-02 -2.062E-04 1.006E-02 -7.503E+01 -8.229E+01
761893 -7.568E+01 -8.184E+01 -2.026E-04 9.323E-03 -2.026E-04 9.323E-03 -7.568E+01 -8.184E+01
809840 -7.635E+01 -8.132E+01 -1.994E-04 8.623E-03 -1.994E-04 8.623E-03 -7.635E+01 -8.132E+01
860804 -7.704E+01 -8.074E+01 -1.966E-04 7.955E-03 -1.966E-04 7.955E-03 -7.704E+01 -8.074E+01
914976 -7.774E+01 -8.006E+01 -1.943E-04 7.317E-03 -1.943E-04 7.317E-03 -7.774E+01 -8.006E+01
972556 -7.848E+01 -7.928E+01 -1.923E-04 6.706E-03 -1.923E-04 6.706E-03 -7.848E+01 -7.928E+01
1033761 -7.925E+01 -7.838E+01 -1.908E-04 6.120E-03 -1.908E-04 6.120E-03 -7.925E+01 -7.838E+01
1098816 -8.005E+01 -7.731E+01 -1.896E-04 5.557E-03 -1.896E-04 5.557E-03 -8.005E+01 -7.731E+01
1167966 -8.090E+01 -7.605E+01 -1.888E-04 5.014E-03 -1.888E-04 5.014E-03 -8.090E+01 -7.605E+01
1241468 -8.180E+01 -7.453E+01 -1.884E-04 4.490E-03 -1.884E-04 4.490E-03 -8.180E+01 -7.453E+01
1319595 -8.275E+01 -7.267E+01 -1.884E-04 3.983E-03 -1.884E-04 3.983E-03 -8.275E+01 -7.267E+01
1402638 -8.378E+01 -7.037E+01 -1.888E-04 3.491E-03 -1.888E-04 3.491E-03 -8.378E+01 -7.037E+01
1490908 -8.490E+01 -6.746E+01 -1.895E-04 3.012E-03 -1.895E-04 3.012E-03 -8.490E+01 -6.746E+01
1584733 -8.610E+01 -6.370E+01 -1.906E-04 2.544E-03 -1.906E-04 2.544E-03 -8.610E+01 -6.370E+01
1684462 -8.741E+01 -5.871E+01 -1.921E-04 2.085E-03 -1.921E-04 2.085E-03 -8.741E+01 -5.871E+01
1790467 -8.882E+01 -5.194E+01 -1.940E-04 1.634E-03 -1.940E-04 1.634E-03 -8.882E+01 -5.194E+01
1903143 -9.026E+01 -4.257E+01 -1.963E-04 1.190E-03 -1.963E-04 1.190E-03 -9.026E+01 -4.257E+01
2022910 -9.157E+01 -2.972E+01 -1.990E-04 7.493E-04 -1.990E-04 7.493E-04 -9.157E+01 -2.972E+01
2150214 -9.243E+01 -1.316E+01 -2.021E-04 3.118E-04 -2.021E-04 3.118E-04 -9.243E+01 -1.316E+01
2285530 -9.248E+01 5.244E+00 -2.057E-04 -1.245E-04 -2.057E-04 -1.245E-04 -9.248E+01 5.244E+00
2429361 -9.168E+01 2.209E+01 -2.097E-04 -5.613E-04 -2.097E-04 -5.613E-04 -9.168E+01 2.209E+01
2582244 -9.040E+01 3.530E+01 -2.141E-04 -1.000E-03 -2.141E-04 -1.000E-03 -9.040E+01 3.530E+01
2744747 -8.896E+01 4.495E+01 -2.191E-04 -1.443E-03 -2.191E-04 -1.443E-03 -8.896E+01 4.495E+01
2917477 -8.755E+01 5.193E+01 -2.245E-04 -1.891E-03 -2.245E-04 -1.891E-03 -8.755E+01 5.193E+01
3101078 -8.623E+01 5.706E+01 -2.304E-04 -2.346E-03 -2.304E-04 -2.346E-03 -8.623E+01 5.706E+01
3296232 -8.502E+01 6.092E+01 -2.369E-04 -2.810E-03 -2.369E-04 -2.810E-03 -8.502E+01 6.092E+01
3503668 -8.390E+01 6.389E+01 -2.439E-04 -3.284E-03 -2.439E-04 -3.284E-03 -8.390E+01 6.389E+01
3724158 -8.287E+01 6.624E+01 -2.515E-04 -3.770E-03 -2.515E-04 -3.770E-03 -8.287E+01 6.624E+01
3958524 -8.190E+01 6.814E+01 -2.598E-04 -4.271E-03 -2.598E-04 -4.271E-03 -8.190E+01 6.814E+01
4207638 -8.100E+01 6.968E+01 -2.687E-04 -4.787E-03 -2.687E-04 -4.787E-03 -8.100E+01 6.968E+01
4472430 -8.015E+01 7.097E+01 -2.782E-04 -5.322E-03 -2.782E-04 -5.322E-03 -8.015E+01 7.097E+01
4753885 -7.935E+01 7.205E+01 -2.885E-04 -5.876E-03 -2.885E-04 -5.876E-03 -7.935E+01 7.205E+01
5053053 -7.858E+01 7.297E+01 -2.995E-04 -6.452E-03 -2.995E-04 -6.452E-03 -7.858E+01 7.297E+01
5371048 -7.784E+01 7.376E+01 -3.113E-04 -7.052E-03 -3.113E-04 -7.052E-03 -7.784E+01 7.376E+01
5709054 -7.713E+01 7.444E+01 -3.240E-04 -7.678E-03 -3.240E-04 -7.678E-03 -7.713E+01 7.444E+01
6068332 -7.645E+01 7.504E+01 -3.375E-04 -8.333E-03 -3.375E-04 -8.333E-03 -7.645E+01 7.504E+01
6450219 -7.578E+01 7.556E+01 -3.520E-04 -9.019E-03 -3.520E-04 -9.019E-03 -7.578E+01 7.556E+01
6856139 -7.513E+01 7.602E+01 -3.674E-04 -9.738E-03 -3.674E-04 -9.738E-03 -7.513E+01 7.602E+01
7287604 -7.450E+01 7.643E+01 -3.839E-04 -1.049E-02 -3.839E-04 -1.049E-02 -7.450E+01 7.643E+01
7746221 -7.388E+01 7.679E+01 -4.016E-04 -1.129E-02 -4.016E-04 -1.129E-02 -7.388E+01 7.679E+01
8233700 -7.327E+01 7.711E+01 -4.204E-04 -1.213E-02 -4.204E-04 -1.213E-02 -7.327E+01 7.711E+01
8751857 -7.267E+01 7.740E+01 -4.404E-04 -1.301E-02 -4.404E-04 -1.301E-02 -7.267E+01 7.740E+01
9302622 -7.208E+01 7.767E+01 -4.618E-04 -1.394E-02 -4.618E-04 -1.394E-02 -7.208E+01 7.767E+01
9888047 -7.149E+01 7.790E+01 -4.845E-04 -1.492E-02 -4.845E-04 -1.492E-02 -7.149E+01 7.790E+01
10510313 -7.091E+01 7.812E+01 -5.088E-04 -1.596E-02 -5.088E-04 -1.596E-02 -7.091E+01 7.812E+01
11171740 -7.034E+01 7.831E+01 -5.346E-04 -1.706E-02 -5.346E-04 -1.706E-02 -7.034E+01 7.831E+01
11874790 -6.978E+01 7.849E+01 -5.621E-04 -1.822E-02 -5.621E-04 -1.822E-02 -6.978E+01 7.849E+01
12622085 -6.921E+01 7.865E+01 -5.913E-04 -1.945E-02 -5.913E-04 -1.945E-02 -6.921E+01 7.865E+01
13416408 -6.866E+01 7.880E+01 -6.225E-04 -2.075E-02 -6.225E-04 -2.075E-02 -6.866E+01 7.880E+01
14260718 -6.810E+01 7.893E+01 -6.556E-04 -2.213E-02 -6.556E-04 -2.213E-02 -6.810E+01 7.893E+01
15158162 -6.755E+01 7.905E+01 -6.909E-04 -2.359E-02 -6.909E-04 -2.359E-02 -6.755E+01 7.905E+01
16112083 -6.700E+01 7.917E+01 -7.285E-04 -2.514E-02 -7.285E-04 -2.514E-02 -6.700E+01 7.917E+01
17126036 -6.645E+01 7.927E+01 -7.684E-04 -2.678E-02 -7.684E-04 -2.678E-02 -6.645E+01 7.927E+01
18203798 -6.591E+01 7.936E+01 -8.109E-04 -2.852E-02 -8.109E-04 -2.852E-02 -6.591E+01 7.936E+01
19349384 -6.537E+01 7.945E+01 -8.561E-04 -3.037E-02 -8.561E-04 -3.037E-02 -6.537E+01 7.945E+01
20567064 -6.482E+01 7.953E+01 -9.042E-04 -3.233E-02 -9.042E-04 -3.233E-02 -6.482E+01 7.953E+01
21861374 -6.428E+01 7.961E+01 -9.553E-04 -3.441E-02 -9.553E-04 -3.441E-02 -6.428E+01 7.961E+01
23237136 -6.375E+01 7.967E+01 -1.010E-03 -3.663E-02 -1.010E-03 -3.663E-02 -6.375E+01 7.967E+01
24699477 -6.321E+01 7.974E+01 -1.068E-03 -3.897E-02 -1.068E-03 -3.897E-02 -6.321E+01 7.974E+01
26253844 -6.267E+01 7.980E+01 -1.129E-03 -4.146E-02 -1.129E-03 -4.146E-02 -6.267E+01 7.980E+01
27906030 -6.214E+01 7.985E+01 -1.195E-03 -4.411E-02 -1.195E-03 -4.411E-02 -6.214E+01 7.985E+01
29662189 -6.160E+01 7.990E+01 -1.264E-03 -4.692E-02 -1.264E-03 -4.692E-02 -6.160E+01 7.990E+01
31528866 -6.107E+01 7.994E+01 -1.338E-03 -4.991E-02 -1.338E-03 -4.991E-02 -6.107E+01 7.994E+01
33513015 -6.053E+01 7.999E+01 -1.417E-03 -5.308E-02 -1.417E-03 -5.308E-02 -6.053E+01 7.999E+01
35622029 -6.000E+01 8.003E+01 -1.501E-03 -5.645E-02 -1.501E-03 -5.645E-02 -6.000E+01 8.003E+01
37863766 -5.947E+01 8.006E+01 -1.590E-03 -6.003E-02 -1.590E-03 -6.003E-02 -5.947E+01 8.006E+01
40246577 -5.893E+01 8.009E+01 -1.684E-03 -6.383E-02 -1.684E-03 -6.383E-02 -5.893E+01 8.009E+01
42779342 -5.840E+01 8.012E+01 -1.785E-03 -6.787E-02 -1.785E-03 -6.787E-02 -5.840E+01 8.012E+01
45471497 -5.787E+01 8.015E+01 -1.892E-03 -7.216E-02 -1.892E-03 -7.216E-02 -5.787E+01 8.015E+01
48333072 -5.734E+01 8.018E+01 -2.006E-03 -7.672E-02 -2.006E-03 -7.672E-02 -5.734E+01 8.018E+01
51374730 -5.681E+01 8.020E+01 -2.127E-03 -8.157E-02 -2.127E-03 -8.157E-02 -5.681E+01 8.020E+01
54607803 -5.627E+01 8.022E+01 -2.256E-03 -8.672E-02 -2.256E-03 -8.672E-02 -5.627E+01 8.022E+01
58044337 -5.574E+01 8.024E+01 -2.393E-03 -9.220E-02 -2.393E-03 -9.220E-02 -5.574E+01 8.024E+01
61697136 -5.521E+01 8.026E+01 -2.539E-03 -9.801E-02 -2.539E-03 -9.801E-02 -5.521E+01 8.026E+01
65579810 -5.468E+01 8.027E+01 -2.694E-03 -1.042E-01 -2.694E-03 -1.042E-01 -5.468E+01 8.027E+01
69706825 -5.415E+01 8.028E+01 -2.858E-03 -1.108E-01 -2.858E-03 -1.108E-01 -5.415E+01 8.028E+01
74093558 -5.362E+01 8.030E+01 -3.034E-03 -1.177E-01 -3.034E-03 -1.177E-01 -5.362E+01 8.030E+01
78756354 -5.309E+01 8.031E+01 -3.220E-03 -1.252E-01 -3.220E-03 -1.252E-01 -5.309E+01 8.031E+01
83712585 -5.256E+01 8.031E+01 -3.419E-03 -1.331E-01 -3.419E-03 -1.331E-01 -5.256E+01 8.031E+01
88980717 -5.203E+01 8.032E+01 -3.630E-03 -1.414E-01 -3.630E-03 -1.414E-01 -5.203E+01 8.032E+01
94580379 -5.150E+01 8.033E+01 -3.855E-03 -1.503E-01 -3.855E-03 -1.503E-01 -5.150E+01 8.033E+01
100532435 -5.097E+01 8.033E+01 -4.093E-03 -1.598E-01 -4.093E-03 -1.598E-01 -5.097E+01 8.033E+01
106859061 -5.044E+01 8.033E+01 -4.348E-03 -1.699E-01 -4.348E-03 -1.699E-01 -5.044E+01 8.033E+01
113583828 -4.991E+01 8.033E+01 -4.618E-03 -1.806E-01 -4.618E-03 -1.806E-01 -4.991E+01 8.033E+01
120731793 -4.938E+01 8.033E+01 -4.906E-03 -1.919E-01 -4.906E-03 -1.919E-01 -4.938E+01 8.033E+01
128329589 -4.885E+01 8.033E+01 -5.213E-03 -2.040E-01 -5.213E-03 -2.040E-01 -4.885E+01 8.033E+01
136405522 -4.832E+01 8.033E+01 -5.539E-03 -2.169E-01 -5.539E-03 -2.169E-01 -4.832E+01 8.033E+01
144989683 -4.779E+01 8.032E+01 -5.886E-03 -2.305E-01 -5.886E-03 -2.305E-01 -4.779E+01 8.032E+01
154114056 -4.726E+01 8.032E+01 -6.255E-03 -2.450E-01 -6.255E-03 -2.450E-01 -4.726E+01 8.032E+01
163812637 -4.673E+01 8.031E+01 -6.648E-03 -2.604E-01 -6.648E-03 -2.604E-01 -4.673E+01 8.031E+01
174121561 -4.620E+01 8.030E+01 -7.067E-03 -2.768E-01 -7.067E-03 -2.768E-01 -4.620E+01 8.030E+01
185079238 -4.567E+01 8.029E+01 -7.513E-03 -2.942E-01 -7.513E-03 -2.942E-01 -4.567E+01 8.029E+01
196726494 -4.514E+01 8.028E+01 -7.988E-03 -3.127E-01 -7.988E-03 -3.127E-01 -4.514E+01 8.028E+01
209106726 -4.461E+01 8.027E+01 -8.493E-03 -3.324E-01 -8.493E-03 -3.324E-01 -4.461E+01 8.027E+01
222266060 -4.408E+01 8.025E+01 -9.032E-03 -3.533E-01 -9.032E-03 -3.533E-01 -4.408E+01 8.025E+01
236253527 -4.355E+01 8.023E+01 -9.605E-03 -3.755E-01 -9.605E-03 -3.755E-01 -4.355E+01 8.023E+01
251121243 -4.302E+01 8.022E+01 -1.022E-02 -3.991E-01 -1.022E-02 -3.991E-01 -4.302E+01 8.022E+01
266924601 -4.249E+01 8.020E+01 -1.087E-02 -4.242E-01 -1.087E-02 -4.242E-01 -4.249E+01 8.020E+01
283722483 -4.197E+01 8.017E+01 -1.156E-02 -4.508E-01 -1.156E-02 -4.508E-01 -4.197E+01 8.017E+01
301577476 -4.144E+01 8.015E+01 -1.230E-02 -4.792E-01 -1.230E-02 -4.792E-01 -4.144E+01 8.015E+01
320556104 -4.091E+01 8.012E+01 -1.309E-02 -5.093E-01 -1.309E-02 -5.093E-01 -4.091E+01 8.012E+01
340729081 -4.038E+01 8.009E+01 -1.393E-02 -5.413E-01 -1.393E-02 -5.413E-01 -4.038E+01 8.009E+01
362171566 -3.985E+01 8.006E+01 -1.483E-02 -5.753E-01 -1.483E-02 -5.753E-01 -3.985E+01 8.006E+01
384963453 -3.932E+01 8.003E+01 -1.578E-02 -6.114E-01 -1.578E-02 -6.114E-01 -3.932E+01 8.003E+01
409189661 -3.879E+01 8.000E+01 -1.680E-02 -6.498E-01 -1.680E-02 -6.498E-01 -3.879E+01 8.000E+01
434940452 -3.826E+01 7.996E+01 -1.789E-02 -6.907E-01 -1.789E-02 -6.907E-01 -3.826E+01 7.996E+01
462311771 -3.773E+01 7.992E+01 -1.905E-02 -7.340E-01 -1.905E-02 -7.340E-01 -3.773E+01 7.992E+01
491405600 -3.720E+01 7.987E+01 -2.029E-02 -7.801E-01 -2.029E-02 -7.801E-01 -3.720E+01 7.987E+01
522330338 -3.667E+01 7.983E+01 -2.161E-02 -8.291E-01 -2.161E-02 -8.291E-01 -3.667E+01 7.983E+01
555201207 -3.615E+01 7.978E+01 -2.303E-02 -8.811E-01 -2.303E-02 -8.811E-01 -3.615E+01 7.978E+01
590140678 -3.562E+01 7.972E+01 -2.454E-02 -9.364E-01 -2.454E-02 -9.364E-01 -3.562E+01 7.972E+01
627278932 -3.509E+01 7.967E+01 -2.615E-02 -9.952E-01 -2.615E-02 -9.952E-01 -3.509E+01 7.967E+01
666754340 -3.456E+01 7.961E+01 -2.788E-02 -1.058E+00 -2.788E-02 -1.058E+00 -3.456E+01 7.961E+01
708713982 -3.403E+01 7.954E+01 -2.972E-02 -1.124E+00 -2.972E-02 -1.124E+00 -3.403E+01 7.954E+01
753314195 -3.350E+01 7.947E+01 -3.169E-02 -1.194E+00 -3.169E-02 -1.194E+00 -3.350E+01 7.947E+01
800721152 -3.298E+01 7.940E+01 -3.381E-02 -1.269E+00 -3.381E-02 -1.269E+00 -3.298E+01 7.940E+01
851111485 -3.245E+01 7.932E+01 -3.607E-02 -1.349E+00 -3.607E-02 -1.349E+00 -3.245E+01 7.932E+01
904672942 -3.192E+01 7.924E+01 -3.848E-02 -1.433E+00 -3.848E-02 -1.433E+00 -3.192E+01 7.924E+01
961605085 -3.139E+01 7.915E+01 -4.108E-02 -1.523E+00 -4.108E-02 -1.523E+00 -3.139E+01 7.915E+01
1022120035 -3.087E+01 7.906E+01 -4.385E-02 -1.618E+00 -4.385E-02 -1.618E+00 -3.087E+01 7.906E+01
1086443262 -3.034E+01 7.896E+01 -4.683E-02 -1.720E+00 -4.683E-02 -1.720E+00 -3.034E+01 7.896E+01
1154814427 -2.981E+01 7.885E+01 -5.002E-02 -1.827E+00 -5.002E-02 -1.827E+00 -2.981E+01 7.885E+01
1227488271 -2.929E+01 7.874E+01 -5.345E-02 -1.942E+00 -5.345E-02 -1.942E+00 -2.929E+01 7.874E+01
1304735566 -2.876E+01 7.862E+01 -5.713E-02 -2.063E+00 -5.713E-02 -2.063E+00 -2.876E+01 7.862E+01
1386844124 -2.823E+01 7.849E+01 -6.108E-02 -2.192E+00 -6.108E-02 -2.192E+00 -2.823E+01 7.849E+01
1474119872 -2.771E+01 7.835E+01 -6.533E-02 -2.329E+00 -6.533E-02 -2.329E+00 -2.771E+01 7.835E+01
1566887987 -2.718E+01 7.821E+01 -6.989E-02 -2.474E+00 -6.989E-02 -2.474E+00 -2.718E+01 7.821E+01
1665494109 -2.666E+01 7.806E+01 -7.480E-02 -2.628E+00 -7.480E-02 -2.628E+00 -2.666E+01 7.806E+01
1770305631 -2.613E+01 7.789E+01 -8.009E-02 -2.792E+00 -8.009E-02 -2.792E+00 -2.613E+01 7.789E+01
1881713067 -2.561E+01 7.772E+01 -8.578E-02 -2.966E+00 -8.578E-02 -2.966E+00 -2.561E+01 7.772E+01
2000131505 -2.508E+01 7.753E+01 -9.191E-02 -3.151E+00 -9.191E-02 -3.151E+00 -2.508E+01 7.753E+01
2126002157 -2.456E+01 7.734E+01 -9.853E-02 -3.347E+00 -9.853E-02 -3.347E+00 -2.456E+01 7.734E+01
2259793998 -2.404E+01 7.713E+01 -1.057E-01 -3.555E+00 -1.057E-01 -3.555E+00 -2.404E+01 7.713E+01
2402005518 -2.351E+01 7.691E+01 -1.134E-01 -3.775E+00 -1.134E-01 -3.775E+00 -2.351E+01 7.691E+01
2553166578 -2.299E+01 7.668E+01 -1.217E-01 -4.009E+00 -1.217E-01 -4.009E+00 -2.299E+01 7.668E+01
2713840383 -2.247E+01 7.643E+01 -1.307E-01 -4.258E+00 -1.307E-01 -4.258E+00 -2.247E+01 7.643E+01
2884625582 -2.195E+01 7.617E+01 -1.404E-01 -4.521E+00 -1.404E-01 -4.521E+00 -2.195E+01 7.617E+01
3066158496 -2.143E+01 7.589E+01 -1.509E-01 -4.800E+00 -1.509E-01 -4.800E+00 -2.143E+01 7.589E+01
3259115492 -2.091E+01 7.559E+01 -1.624E-01 -5.097E+00 -1.624E-01 -5.097E+00 -2.091E+01 7.559E+01
3464215500 -2.040E+01 7.528E+01 -1.747E-01 -5.411E+00 -1.747E-01 -5.411E+00 -2.040E+01 7.528E+01
3682222696 -1.988E+01 7.495E+01 -1.881E-01 -5.743E+00 -1.881E-01 -5.743E+00 -1.988E+01 7.495E+01
3913949344 -1.936E+01 7.459E+01 -2.027E-01 -6.096E+00 -2.027E-01 -6.096E+00 -1.936E+01 7.459E+01
4160258825 -1.885E+01 7.422E+01 -2.184E-01 -6.469E+00 -2.184E-01 -6.469E+00 -1.885E+01 7.422E+01
4422068854 -1.834E+01 7.383E+01 -2.356E-01 -6.865E+00 -2.356E-01 -6.865E+00 -1.834E+01 7.383E+01
4700354899 -1.782E+01 7.341E+01 -2.543E-01 -7.283E+00 -2.543E-01 -7.283E+00 -1.782E+01 7.341E+01
4996153816 -1.731E+01 7.297E+01 -2.745E-01 -7.726E+00 -2.745E-01 -7.726E+00 -1.731E+01 7.297E+01
5310567709 -1.681E+01 7.250E+01 -2.966E-01 -8.194E+00 -2.966E-01 -8.194E+00 -1.681E+01 7.250E+01
5644768043 -1.630E+01 7.200E+01 -3.206E-01 -8.690E+00 -3.206E-01 -8.690E+00 -1.630E+01 7.200E+01
6000000000 -1.580E+01 7.148E+01 -3.468E-01 -9.213E+00 -3.468E-01 -9.213E+00 -1.580E+01 7.148E+01
