
**** 03/06/22 11:59:35 ******* PSpice 17.4.0 (Nov 2018) ******* ID# 0 ********

 ** Profile: "Startup-tran"  [ D:\Git\ishero\circuit_simulation\pspiceTI\TPS40170\TPS40170_PSPICE_TRANS\tps40170-pspicefiles\startup\


 ****     CIRCUIT DESCRIPTION


******************************************************************************




** Creating circuit file "tran.cir" 
** WARNING: THIS AUTOMATICALLY GENERATED FILE MAY BE OVERWRITTEN BY SUBSEQUENT SIMULATIONS

*Libraries: 
* Profile Libraries :
* Local Libraries :
.LIB "../../../tps40170.lib" 
* From [PSPICE NETLIST] section of C:\cds_spb_home\cdssetup\OrCAD_PSpiceTIPSpice_Install\17.4.0\PSpice.ini file:
.lib "nom_pspti.lib" 
.lib "nom.lib" 

*Analysis directives: 
.TRAN  0 1.8m 0 20n 
.OPTIONS ADVCONV
.OPTIONS FILEMODELSEARCH
.OPTIONS ABSTOL= 10n
.OPTIONS ITL1= 1500
.OPTIONS ITL2= 400
.OPTIONS ITL4= 400
.OPTIONS VNTOL= 10u
.PROBE64 V(alias(*)) I(alias(*)) 
.INC "..\Startup.net" 



**** INCLUDING Startup.net ****
* source TPS40170
R_R5         0 LDRV  10k  
C_C20         LDRV 0  1000p IC=0 
X_Q1         HDRV VIN SW POWERMOS PARAMS: RDSON=9m CISS=2000p CRSS=17p
+  COSS=440p VSP=3 RG=1.3
C_C14         FB COMP  220p IC=0 
R_R4         N145662551 FB  3.83k  
C_C13         N145662551 COMP  8200p IC=0 
R_R10         0 FB  2.74k  
R_RLoad         0 VOUT  0.833  
X_C9         VOUT 0 CESR PARAMS:  C=22u  ESR=5m X=2  IC=0
X_L1         SW VOUT LDCR PARAMS:  L=8.2u  DCR=16m IC=0
X_C22         VOUT 0 CESR PARAMS:  C=10u  ESR=5m X=2  IC=0
R_R2         UVLO VIN  200k  
R_R6         0 UVLO  22.1k  
X_Q2         LDRV SW 0 POWERMOS PARAMS: RDSON=6.2m CISS=3000p CRSS=24p
+  COSS=660p VSP=3 RG=1
R_R1         VIN VIN  1  
R_R9         0 ILIM  12.1k  
C_C18         VIN 0  1u IC=0 
C_C15         SS 0  3.3n IC=0 
C_C7         SW BOOT  0.1u  
R_R12         N14567287 VOUT  49.9  
R_R11         FB N14567287  20k  
R_R13         N14566111 N14567287  511  
C_C21         N14566111 FB  1500p IC=0 
X_C1         VIN 0 CESR PARAMS:  C=2.2u  ESR=5m X=4  IC=0
X_C5         VIN 0 CESR PARAMS:  C=1u  ESR=5m X=1  IC=0
X_C6         VIN 0 CESR PARAMS:  C=120u  ESR=5m X=1  IC=0
V_VIN         VIN 0  
+PULSE 0 60 1u 10u 10u 1 2
C_C19         VBP 0  4.7u IC=0 
R_R16         TRK VDD  10k  
R_R19         VOUT PGOOD  100k  
C_C16         VDD 0  1u IC=0 
R_R7         0 RT  31.6k  
C_C17         ILIM 0  1000p IC=0 
R_R14         ENABLE VIN  64.9k  
X_U1         SYNC FB HDRV RT SS SW 0 0 TRK COMP VIN PGOOD VBP VDD VIN LDRV ILIM
+  UVLO BOOT ENABLE TPS40170 

**** RESUMING tran.cir ****
.END


WARNING(ORPSIM-15223): Library file C:\cds_spb_home\cdssetup\pspTILibDir\nom_pspti.lib has changed since index file nom_pspti.ind was created.

WARNING(ORPSIM-15227): The timestamp changed from Sun Feb 27 10:40:56 2022 to Sun Mar  6 11:57:53 2022.

INFO(ORPSIM-15422): Making new index file nom_pspti.ind for library file nom_pspti.lib.

Index has 102139 entries from 4889 file(s).

**** 03/06/22 11:59:35 ******* PSpice 17.4.0 (Nov 2018) ******* ID# 0 ********

 ** Profile: "Startup-tran"  [ D:\Git\ishero\circuit_simulation\pspiceTI\TPS40170\TPS40170_PSPICE_TRANS\tps40170-pspicefiles\startup\


 ****     Diode MODEL PARAMETERS


******************************************************************************




               X_Q1.Dbreak     X_Q2.Dbreak     D300            D_D1            
          IS   10.000000E-15   10.000000E-15    4.499700E-12    1.000000E-15 
           N                                     .79874          .1          
         ISR                                  100.000000E-12                 
         IKF                                    1.000000E+03                 
          BV                                  100                            
         IBV                                  100.000000E-06                 
          RS     .1              .1             1.000000E-06     .05         
          TT                                    5.000000E-09   10.000000E-12 
         CJO  100.000000E-15  100.000000E-15    1.000000E-12                 
          VJ                                     .75                         
           M                                     .3333                       


               DIDEAL          Dbreak          
          IS   10.000000E-15   10.000000E-15 
          RS     .1              .1          
         CJO  100.000000E-15  100.000000E-15 


               X_U1.X_U3_U10.Dideal 
          IS  100.000000E-12 
          RS    1.000000E-03 
         CJO   10.000000E-15 


**** 03/06/22 11:59:35 ******* PSpice 17.4.0 (Nov 2018) ******* ID# 0 ********

 ** Profile: "Startup-tran"  [ D:\Git\ishero\circuit_simulation\pspiceTI\TPS40170\TPS40170_PSPICE_TRANS\tps40170-pspicefiles\startup\


 ****     Voltage Controlled Switch MODEL PARAMETERS


******************************************************************************




               X_Q1._switchM   X_Q2._switchM   
         RON    9.000000E-03    6.200000E-03 
        ROFF  100.000000E+06  100.000000E+06 
         VON    3               3            
        VOFF    1.1             1.1          


               X_U1.X_U3_S2._U3_S2 
         RON    1            
        ROFF   10.000000E+06 
         VON     .75         
        VOFF     .25         


               X_U1.X_U1_S1._U1_S1 
         RON    1.000000E-03 
        ROFF   10.000000E+06 
         VON    1            
        VOFF    0            


               X_U1.X_U8_U11.S1 
         RON    1            
        ROFF    1.000000E+09 
         VON     .75         
        VOFF     .25         


               X_U1.X_U8_S1._U8_S1 
         RON    2.64         
        ROFF    1.000000E+09 
         VON     .75         
        VOFF     .25         


               X_U1.X_U8_S2._U8_S2 
         RON    2.4          
        ROFF    1.000000E+09 
         VON     .75         
        VOFF     .25         


               X_U1.X_U8_S3._U8_S3 
         RON    2.4          
        ROFF    1.000000E+09 
         VON     .75         
        VOFF     .25         


               X_U1.X_U8_S4._U8_S4 
         RON    1.1          
        ROFF    1.000000E+09 
         VON     .75         
        VOFF     .25         


               X_U1.X_U8_U12.S1 
         RON    1            
        ROFF    1.000000E+09 
         VON     .75         
        VOFF     .25         


               X_U1.X_U2_S1._U2_S1 
         RON    1.000000E-03 
        ROFF   10.000000E+06 
         VON    1            
        VOFF    0            


               X_U1.X_U2_S2._U2_S2 
         RON    1.000000E-03 
        ROFF   10.000000E+06 
         VON    1            
        VOFF    0            


               X_U1.X_U7_S2._U7_S2 
         RON    1.000000E-03 
        ROFF  100.000000E+06 
         VON     .75         
        VOFF     .25         


               X_U1.X_U7_S3._U7_S3 
         RON    1.000000E-03 
        ROFF  100.000000E+06 
         VON     .75         
        VOFF     .25         


               X_U1.X_U4_CALIB_TIMING_U161.S1 
         RON    1            
        ROFF    1.000000E+09 
         VON     .75         
        VOFF     .25         


               X_U1.X_U4_CALIB_TIMING_U6.S1 
         RON    1            
        ROFF    1.000000E+09 
         VON     .75         
        VOFF     .25         


               X_U1.X_U4_CALIB_TIMING_U14.S1 
         RON    1            
        ROFF    1.000000E+09 
         VON     .75         
        VOFF     .25         


               X_U1.X_U4_S2._U4_S2 
         RON    1            
        ROFF    1.000000E+09 
         VON     .75         
        VOFF     .25         


               X_U1.X_U5_S2._U5_S2 
         RON   30            
        ROFF   10.000000E+06 
         VON     .8          
        VOFF     .2          


               X_U1.X_U6_U126.S1 
         RON    1            
        ROFF    1.000000E+09 
         VON     .75         
        VOFF     .25         


               X_U1.X_U6_U125.S1 
         RON    1            
        ROFF    1.000000E+09 
         VON     .75         
        VOFF     .25         


               X_U1.X_U9_U39_S2._U9_U39_S2 
         RON    1.000000E-03 
        ROFF   10.000000E+06 
         VON     .8          
        VOFF     .2          


               X_U1.X_U9_U39_S1._U9_U39_S1 
         RON    1.000000E-03 
        ROFF   10.000000E+06 
         VON     .8          
        VOFF     .2          


               X_U1.X_U9_S1._U9_S1 
         RON    1.000000E-03 
        ROFF   10.000000E+06 
         VON     .8          
        VOFF     .2          


               X_U1.X_U9_S3._U9_S3 
         RON    1.000000E-03 
        ROFF   10.000000E+06 
         VON     .8          
        VOFF     .2          


               X_U1.X_U9_S2._U9_S2 
         RON    1.000000E-03 
        ROFF   10.000000E+06 
         VON     .8          
        VOFF     .2          


               X_U1.X_U9_U40_S2._U9_U40_S2 
         RON    1.000000E-03 
        ROFF   10.000000E+06 
         VON     .8          
        VOFF     .2          


               X_U1.X_U9_U40_S1._U9_U40_S1 
         RON    1.000000E-03 
        ROFF   10.000000E+06 
         VON     .8          
        VOFF     .2          


WARNING(ORPSIM-16534): Using high values of ITL4 for Speed Level > 0 may increase total simulation job time.

**** 03/06/22 11:59:35 ******* PSpice 17.4.0 (Nov 2018) ******* ID# 0 ********

 ** Profile: "Startup-tran"  [ D:\Git\ishero\circuit_simulation\pspiceTI\TPS40170\TPS40170_PSPICE_TRANS\tps40170-pspicefiles\startup\


 ****     INITIAL TRANSIENT SOLUTION       TEMPERATURE =   27.000 DEG C


******************************************************************************



 NODE   VOLTAGE     NODE   VOLTAGE     NODE   VOLTAGE     NODE   VOLTAGE


(   FB) 7.196E-09  (   RT)    0.0000  (   SS)    0.0000  (   SW) 954.5E-21      

(  TRK)    0.0000  (  VBP)-588.0E-27  (  VDD)    0.0000  (  VIN)    0.0000      

( BOOT) 643.4E-21  ( COMP) 7.196E-09  ( HDRV) 644.9E-21  ( ILIM)    0.0000      

( LDRV) 956.4E-18  ( SYNC)    0.0000  ( UVLO)    0.0000  ( VOUT) 29.45E-15      

(PGOOD) 8.834E-18  (ENABLE)    0.0000 (X_C1.1)    0.0000 (X_C5.1)    0.0000     

(X_C6.1)    0.0000 (X_C9.1) 16.36E-15 (X_L1.1) 29.45E-15 (X_U1.A)    7.2500     

(X_C22.1) 16.36E-15                   (X_Q1.Da) 954.3E-21                       

(X_Q1.Db)    0.0000                   (X_Q1.Ga) 477.4E-21                       

(X_Q2.Da) 190.9E-24                   (X_Q2.Db) 954.5E-21                       

(X_Q2.Ga) 1.432E-18                   (X_U1.CT) 1.333E-09                       

(X_U1.CAL)    0.0000                  (X_U1.CLK)    0.0000                      

(X_U1.RUN)    0.0000                  (N14566111) 7.196E-09                     

(N14567287) 655.0E-12                 (X_U1.ENOK)    0.0000                     

(X_U1.PWMH)    0.0000                 (X_U1.PWML)    0.0000                     

(X_U1.U6_X)    0.0000                 (X_U1.U6_Y)    0.0000                     

(X_U1.U9_X)    0.0000                 (N145662551) 7.196E-09                    

(X_U1.BP_OK)    0.0000                (X_U1.OCFLT)    0.0000                    

(X_U1.U6_Q0)    0.0000                (X_U1.U6_Q1)    0.0000                    

(X_U1.U6_Q2)    0.0000                (X_U1.U9_HI)    1.0000                    

(X_U1.U3_REF)    0.0000               (X_U1.U4_10K)    0.0000                   

(X_U1.U4_20K)    0.0000               (X_U1.U6_OCP)    0.0000                   

(X_U1.U6_Q0B)    1.0000               (X_U1.U6_Q1B)    1.0000                   

(X_U1.U6_Q2B)    1.0000               (X_U1.U6_SCP)    0.0000                   

(X_U1.VDD_OK)    0.0000               (X_U1.N204543)    1.0000                  

(X_U1.N225967)    1.0000              (X_U1.N227440)    1.0000                  

(X_U1.N592387)    1.0000              (X_U1.SS_EAMP)    0.0000                  

(X_U1.U4_OPEN)    0.0000              (X_U1.U6_V_SC)    0.0000                  

(X_U1.U7_CLKB)    1.0000              (X_U1.N2879291)    1.0000                 

(X_U1.N2948830)    1.0000             (X_U1.N3077128)    1.0000                 

(X_U1.N3081633)    1.0000             (X_U1.N3194383)    1.0000                 

(X_U1.N3248566)    1.0000             (X_U1.U7_RAMP2)    1.0000                 

(X_U1.U8_PWMH2)    0.0000             (X_U1.U9_SLAVE)    1.0000                 

(X_U1.N16934377)    1.0000            (X_U1.NORMAL_OC)    0.0000                

(X_U1.U1_CHARGE)    0.0000            (X_U1.U1_VIN_OK)    0.0000                

(X_U1.U9_MASTER)    0.0000            (X_U1.U9_SYNC_0)    0.0000                

(X_U1.U9_SYNC_X) 100.1E-09            (X_U1.U9_SYNC_Y)    0.0000                

(X_U1.X_U2_U4.1)    0.0000            (X_U1.X_U6_U5.3)    0.0000                

(X_U1.X_U6_U6.3)    0.0000            (X_U1.X_U9_U3.3)    0.0000                

(X_U1.X_U9_U5.3)    0.0000            (X_U1.X_U9_U6.3)    1.0000                

(X_U1.U1_N160998)    -.3700           (X_U1.U1_N163802)     .7000               

(X_U1.U1_N253044)     .6000           (X_U1.U1_N253445)     .5000               

(X_U1.U1_OCFLT_N)    1.0000           (X_U1.U2_DISABLE)    1.0000               

(X_U1.U2_N161218)    4.1500           (X_U1.U3_N132154) 10.30E-09               

(X_U1.U3_N133169)   10.0000           (X_U1.U3_N144236) 7.196E-09               

(X_U1.U4_N119463)     .0800           (X_U1.U4_N119519)     .1800               

(X_U1.U4_N225782)    0.0000           (X_U1.U4_N225874)    1.0000               

(X_U1.U4_N226689)    0.0000           (X_U1.U4_N227004)    0.0000               

(X_U1.U4_N236835)    0.0000           (X_U1.U7_LDRV_SS)    0.0000               

(X_U1.U7_N114697)    1.0000           (X_U1.U7_N168103)    0.0000               

(X_U1.U7_N200633)    1.0000           (X_U1.U7_N210378)    0.0000               

(X_U1.U8_N160282)    1.0000           (X_U1.U8_N160354)    0.0000               

(X_U1.U8_N160432)    1.0000           (X_U1.U8_N160440)    0.0000               

(X_U1.U8_N160494)    1.0000           (X_U1.U8_N160778)    1.0000               

(X_U1.U8_N160840)    1.0000           (X_U1.U8_N160856)    1.0000               

(X_U1.U8_N160896)    1.0000           (X_U1.U8_N160968)    1.0000               

(X_U1.U8_N161016)    1.0000           (X_U1.U8_N161046) 643.4E-21               

(X_U1.U8_N197252)    1.0000           (X_U1.U9_CAL_BAR)    0.0000               

(X_U1.U9_SYNC_IN) 100.0E-09           (X_U1.X_U10.YINT)    1.0000               

(X_U1.X_U1_U24.1)    0.0000           (X_U1.X_U3_U10.1) 630.4E-09               

(X_U1.X_U3_U10.2) 630.4E-09           (X_U1.X_U3_U10.3)     .2000               

(X_U1.X_U3_U10.4)    9.8000           (X_U1.X_U3_U10.5)-227.5E-09               

(X_U1.X_U3_U10.6)-227.5E-09           (X_U1.CALIBRATION)    1.0000              

(X_U1.SS_COMPLETE)    0.0000          (X_U1.U1_N2805279)     .9000              

(X_U1.U1_N2857755)    1.0000          (X_U1.U1_N2861276)    2.5000              

(X_U1.U1_N2869841)     .3000          (X_U1.U1_N2885403)    1.0000              

(X_U1.U2_N1708233)     .3000          (X_U1.U2_N2747005) 588.0E-27              

(X_U1.U2_N2747011)    0.0000          (X_U1.U2_N2747043) 588.0E-27              

(X_U1.U2_N2750084)    0.0000          (X_U1.U2_N2751353)    0.0000              

(X_U1.U2_N2752015)    0.0000          (X_U1.U2_N2852067)    0.0000              

(X_U1.U2_N2852111)    0.0000          (X_U1.U2_N2852253)    0.0000              

(X_U1.U2_N2852277)    0.0000          (X_U1.U2_N2852303)    0.0000              

(X_U1.U2_N2855787)    3.0000          (X_U1.U2_N2857881)-9.799E-30              

(X_U1.U3_N2752920)    0.0000          (X_U1.U4_LDRV_CAL) 480.0E-06              

(X_U1.U4_N2936428)     .2400          (X_U1.U4_N2948636)     .2800              

(X_U1.U4_N2948662)    0.0000          (X_U1.U4_N2948810)    0.0000              

(X_U1.U6_N2975396)    1.0000          (X_U1.U6_N2975532)    0.0000              

(X_U1.U6_N2975600)    0.0000          (X_U1.U6_N2975680)    0.0000              

(X_U1.U6_N2975746)    1.0000          (X_U1.U6_N2975986)    2.2000              

(X_U1.U6_N2976512)    0.0000          (X_U1.U6_N2976630)    0.0000              

(X_U1.U6_N2976644)    0.0000          (X_U1.U6_N2976658)    0.0000              

(X_U1.U6_N2976676)    0.0000          (X_U1.U6_N2976688)    0.0000              

(X_U1.U6_N2976692)    1.0000          (X_U1.U6_N2976880)    1.0000              

(X_U1.U6_N2977028)    0.0000          (X_U1.U6_N2977670)    0.0000              

(X_U1.U6_N2977724)    1.0000          (X_U1.U6_N2978050)    1.0000              

(X_U1.U6_N2978054)    0.0000          (X_U1.U6_N2978062)    0.0000              

(X_U1.U6_N2978088) 296.5E-30          (X_U1.U6_N2978184)    2.2000              

(X_U1.U6_N2978548)    0.0000          (X_U1.U6_N2978628)    0.0000              

(X_U1.U6_N2978674)    0.0000          (X_U1.U6_N2978700)    0.0000              

(X_U1.U6_N2978874)-954.5E-21          (X_U1.U6_N3116510)    0.0000              

(X_U1.U6_N3117424)    0.0000          (X_U1.U6_N3120549)    0.0000              

(X_U1.U6_N3133255)    0.0000          (X_U1.U6_N3239945)    0.0000              

(X_U1.U6_RESET_SM)    1.0000          (X_U1.U6_XY_RESET)    0.0000              

(X_U1.U7_CLOCK_EX)    0.0000          (X_U1.U7_SW_START)    0.0000              

(X_U1.U9_N2689254)    0.0000          (X_U1.U9_N2689286)    0.0000              

(X_U1.U9_N2689298)    0.0000          (X_U1.U9_N2689326)    1.0000              

(X_U1.U9_N2689340)    2.0000          (X_U1.U9_N2689344)    2.0000              

(X_U1.U9_N2689348)    0.0000          (X_U1.U9_N2689448) 2.000E-09              

(X_U1.U9_N2689534)    0.0000          (X_U1.U9_N2689866)    1.0000              

(X_U1.U9_N2689896)    1.0000          (X_U1.U9_N2689930)    0.0000              

(X_U1.U9_N2689936)    2.0000          (X_U1.U9_N2689954)    1.0000              

(X_U1.U9_N2689980)    0.0000          (X_U1.U9_N2690152)    0.0000              

(X_U1.U9_N2690174)    0.0000          (X_U1.U9_N2690450)    0.0000              

(X_U1.U9_N2690546)    0.0000          (X_U1.U9_N2897570) 1.333E-09              

(X_U1.U9_N2897628)    0.0000          (X_U1.U9_N2897632)    1.4000              

(X_U1.U9_N2897640)    1.0000          (X_U1.U9_N2897684)    0.0000              

(X_U1.U9_N2897726) 2.000E-06          (X_U1.U9_N2897736)    1.0000              

(X_U1.U9_N2897742)    1.0000          (X_U1.U9_N2897766)    1.0000              

(X_U1.U9_N2897788)    0.0000          (X_U1.U9_N2897800)    0.0000              

(X_U1.U9_N2897858)    0.0000          (X_U1.U9_N2897880)    1.0000              

(X_U1.U9_N2897886)    0.0000          (X_U1.U9_N2897906)    0.0000              

(X_U1.U9_N2897962)    0.0000          (X_U1.U9_N2898064)    0.0000              

(X_U1.U9_N2898106)    0.0000          (X_U1.U9_N2898154)    1.0000              

(X_U1.U9_N3224396)    1.0000          (X_U1.U9_N3228902)    1.0000              

(X_U1.U9_N3244723)    0.0000          (X_U1.U9_SYNC_180)    1.0000              

(X_U1.U9_SYNC_OUT)    0.0000          (X_U1.U9_SYNC_PLS)    0.0000              

(X_U1.U9_SYNC_RUN)    0.0000          (X_U1.X_U7_U35.Yp)    1.0000              

(X_U1.X_U8_U11.CH)    1.0000          (X_U1.X_U8_U12.CH)    1.0000              

(X_U1.U1_DISCHARGE)    0.0000         (X_U1.U5_N14728944)    1.0000             

(X_U1.U5_N14728952)    0.0000         (X_U1.U5_N14729018)    1.0000             

(X_U1.U5_N14729244)    0.0000         (X_U1.U5_N14729274)    -.0040             

(X_U1.U5_N14729286)     .5520         (X_U1.U5_N14729304)     .5520             

(X_U1.U5_N14736445)     .6470         (X_U1.U5_N14748523)    1.0000             

(X_U1.U6_CLOCK_BAR)    1.0000         (X_U1.U6_HDRV_HIGH)    0.0000             

(X_U1.U6_LDRV_HIGH)    0.0000         (X_U1.U7_N16922094)    2.2000             

